<Qucs Dataset 1.0.5>
<indep frequency 141>
  +1.00000000000000000000e+08
  +1.10000000000000000000e+08
  +1.20000000000000000000e+08
  +1.30000000000000000000e+08
  +1.40000000000000000000e+08
  +1.50000000000000000000e+08
  +1.60000000000000000000e+08
  +1.70000000000000000000e+08
  +1.80000000000000000000e+08
  +1.90000000000000000000e+08
  +2.00000000000000000000e+08
  +2.10000000000000000000e+08
  +2.20000000000000000000e+08
  +2.30000000000000000000e+08
  +2.40000000000000000000e+08
  +2.50000000000000000000e+08
  +2.60000000000000000000e+08
  +2.70000000000000000000e+08
  +2.80000000000000000000e+08
  +2.90000000000000000000e+08
  +3.00000000000000000000e+08
  +3.10000000000000000000e+08
  +3.20000000000000000000e+08
  +3.30000000000000000000e+08
  +3.40000000000000000000e+08
  +3.50000000000000000000e+08
  +3.60000000000000000000e+08
  +3.70000000000000000000e+08
  +3.80000000000000000000e+08
  +3.90000000000000000000e+08
  +4.00000000000000000000e+08
  +4.10000000000000000000e+08
  +4.20000000000000000000e+08
  +4.30000000000000000000e+08
  +4.40000000000000000000e+08
  +4.50000000000000000000e+08
  +4.60000000000000000000e+08
  +4.70000000000000000000e+08
  +4.80000000000000000000e+08
  +4.90000000000000000000e+08
  +5.00000000000000000000e+08
  +5.10000000000000000000e+08
  +5.20000000000000000000e+08
  +5.30000000000000000000e+08
  +5.40000000000000000000e+08
  +5.50000000000000000000e+08
  +5.60000000000000000000e+08
  +5.70000000000000000000e+08
  +5.80000000000000000000e+08
  +5.90000000000000000000e+08
  +6.00000000000000000000e+08
  +6.10000000000000000000e+08
  +6.20000000000000000000e+08
  +6.30000000000000000000e+08
  +6.40000000000000000000e+08
  +6.50000000000000000000e+08
  +6.60000000000000000000e+08
  +6.70000000000000000000e+08
  +6.80000000000000000000e+08
  +6.90000000000000000000e+08
  +7.00000000000000000000e+08
  +7.10000000000000000000e+08
  +7.20000000000000000000e+08
  +7.30000000000000000000e+08
  +7.40000000000000000000e+08
  +7.50000000000000000000e+08
  +7.60000000000000000000e+08
  +7.70000000000000000000e+08
  +7.80000000000000000000e+08
  +7.90000000000000000000e+08
  +8.00000000000000000000e+08
  +8.10000000000000000000e+08
  +8.20000000000000000000e+08
  +8.30000000000000000000e+08
  +8.40000000000000000000e+08
  +8.50000000000000000000e+08
  +8.60000000000000000000e+08
  +8.70000000000000000000e+08
  +8.80000000000000000000e+08
  +8.90000000000000000000e+08
  +9.00000000000000000000e+08
  +9.10000000000000000000e+08
  +9.20000000000000000000e+08
  +9.30000000000000000000e+08
  +9.40000000000000000000e+08
  +9.50000000000000000000e+08
  +9.60000000000000000000e+08
  +9.70000000000000000000e+08
  +9.80000000000000000000e+08
  +9.90000000000000000000e+08
  +1.00000000000000000000e+09
  +1.01000000000000000000e+09
  +1.02000000000000000000e+09
  +1.03000000000000000000e+09
  +1.04000000000000000000e+09
  +1.05000000000000000000e+09
  +1.06000000000000000000e+09
  +1.07000000000000000000e+09
  +1.08000000000000000000e+09
  +1.09000000000000000000e+09
  +1.10000000000000000000e+09
  +1.11000000000000000000e+09
  +1.12000000000000000000e+09
  +1.13000000000000000000e+09
  +1.14000000000000000000e+09
  +1.15000000000000000000e+09
  +1.16000000000000000000e+09
  +1.17000000000000000000e+09
  +1.18000000000000000000e+09
  +1.19000000000000000000e+09
  +1.20000000000000000000e+09
  +1.21000000000000000000e+09
  +1.22000000000000000000e+09
  +1.23000000000000000000e+09
  +1.24000000000000000000e+09
  +1.25000000000000000000e+09
  +1.26000000000000000000e+09
  +1.27000000000000000000e+09
  +1.28000000000000000000e+09
  +1.29000000000000000000e+09
  +1.30000000000000000000e+09
  +1.31000000000000000000e+09
  +1.32000000000000000000e+09
  +1.33000000000000000000e+09
  +1.34000000000000000000e+09
  +1.35000000000000000000e+09
  +1.36000000000000000000e+09
  +1.37000000000000000000e+09
  +1.38000000000000000000e+09
  +1.39000000000000000000e+09
  +1.40000000000000000000e+09
  +1.41000000000000000000e+09
  +1.42000000000000000000e+09
  +1.43000000000000000000e+09
  +1.44000000000000000000e+09
  +1.45000000000000000000e+09
  +1.46000000000000000000e+09
  +1.47000000000000000000e+09
  +1.48000000000000000000e+09
  +1.49000000000000000000e+09
  +1.50000000000000000000e+09
</indep>
<dep dBS12 frequency>
  -5.52376057907294040206e+01
  -5.38156361125066666773e+01
  -5.28336777273177347070e+01
  -5.19852107706607213800e+01
  -5.13598078284310020081e+01
  -5.07799881504441685820e+01
  -5.03957691367316158448e+01
  -4.99983014423664400283e+01
  -4.97631773170046187715e+01
  -4.95110038703305477270e+01
  -4.92977365967198295493e+01
  -4.91600849624888454059e+01
  -4.90407057031577409134e+01
  -4.88505207433721295729e+01
  -4.87586383619826406743e+01
  -4.85934567627339930596e+01
  -4.84591802534519757728e+01
  -4.84493264203092550702e+01
  -4.82349656583204904337e+01
  -4.81656680418867111371e+01
  -4.80799389675471928740e+01
  -4.80053982798543756871e+01
  -4.78151473587084581141e+01
  -4.77133388781480647367e+01
  -4.75867767653780404657e+01
  -4.74561838981981480856e+01
  -4.73481009325875490390e+01
  -4.72172541299455232888e+01
  -4.70398766277901003718e+01
  -4.69682072620226307436e+01
  -4.68155091599035699801e+01
  -4.66746527629413208160e+01
  -4.65831576150301316375e+01
  -4.64434562338536167658e+01
  -4.63293891629312426517e+01
  -4.61749942525285916872e+01
  -4.59975507363173079511e+01
  -4.59089898394682336402e+01
  -4.57820640618740668515e+01
  -4.56167782916597914777e+01
  -4.55190951061482564910e+01
  -4.53492729616450347407e+01
  -4.52295493798990193568e+01
  -4.50585988331941038609e+01
  -4.49769675137892548378e+01
  -4.48258323435197070239e+01
  -4.46827105278359084650e+01
  -4.45488073055141953205e+01
  -4.43971136485271955507e+01
  -4.42325596380734324953e+01
  -4.41792100019922102661e+01
  -4.39979843504821985789e+01
  -4.38965929891982540312e+01
  -4.37937185877427026526e+01
  -4.36144168902432411983e+01
  -4.34928488390465943780e+01
  -4.34185688288356956832e+01
  -4.33022879526364192770e+01
  -4.31676234224972503739e+01
  -4.30364702220117436582e+01
  -4.29654096352033221251e+01
  -4.28774752015021078932e+01
  -4.27712667248401672282e+01
  -4.26757392969389712789e+01
  -4.25989997228010324193e+01
  -4.24554229253449477710e+01
  -4.23900654934942977548e+01
  -4.22832928664830660637e+01
  -4.21860751165699809917e+01
  -4.20938608481126053107e+01
  -4.20939665289061863973e+01
  -4.19508904911457705111e+01
  -4.18806021132173995625e+01
  -4.18122359675857708794e+01
  -4.17779742193016119245e+01
  -4.17053017709642332989e+01
  -4.16546453556272737728e+01
  -4.15741760368837987016e+01
  -4.15154826811586445956e+01
  -4.14808868016973590898e+01
  -4.14300808416480847995e+01
  -4.13732410541130875004e+01
  -4.13153414327008832174e+01
  -4.12770073903426180095e+01
  -4.12345927526425839460e+01
  -4.11847170077278761369e+01
  -4.11570793784424040496e+01
  -4.11062287689580259098e+01
  -4.10735971243463069413e+01
  -4.10618560516707304942e+01
  -4.10326031851450849786e+01
  -4.09657500237036842350e+01
  -4.09501361128058221084e+01
  -4.09431446095751567782e+01
  -4.09177407193158515497e+01
  -4.08679718515287078162e+01
  -4.08528718808203876733e+01
  -4.08364072592886486746e+01
  -4.07568886490158064362e+01
  -4.07523194751965007754e+01
  -4.07413184386096389744e+01
  -4.07454168300348698040e+01
  -4.06884311501910360676e+01
  -4.06843385589843720140e+01
  -4.06429248588644398410e+01
  -4.06038516755110308054e+01
  -4.05979280578291152892e+01
  -4.05694055129506949697e+01
  -4.05579449653770751638e+01
  -4.05051186458799676871e+01
  -4.04836837838722090055e+01
  -4.04678615538811286001e+01
  -4.04375562937010499809e+01
  -4.04254397062140498065e+01
  -4.03619071953729431357e+01
  -4.03574341079318443803e+01
  -4.03672032154677538074e+01
  -4.03084531927501217297e+01
  -4.02557513369051633845e+01
  -4.02539620276476171057e+01
  -4.02275571222655159431e+01
  -4.01471607107951626858e+01
  -4.01176617153754548895e+01
  -4.00954764021835003973e+01
  -4.00576104863613977614e+01
  -4.00194418026191698345e+01
  -3.99807689415121743082e+01
  -3.99245102608468016570e+01
  -3.98839446924112976944e+01
  -3.98285836808849040835e+01
  -3.98113092324045609871e+01
  -3.97661218446042354913e+01
  -3.97188026539010365923e+01
  -3.96593131184852296656e+01
  -3.96305061694811229245e+01
  -3.95677305439854052338e+01
  -3.95166669717671510398e+01
  -3.94732855470622254757e+01
  -3.93788448205836871807e+01
  -3.93468618804289747004e+01
  -3.93047011332227143043e+01
</dep>
<dep dBS21 frequency>
  +2.39420927059863898959e-03
  +8.24363887493333225009e-01
  +1.46632227268225756589e+00
  +1.92478922933927631966e+00
  +2.27019217156900010579e+00
  +2.49001184955583454439e+00
  +2.61423086326838705062e+00
  +2.67169855763355768019e+00
  +2.65682268299538026923e+00
  +2.60899612966944793868e+00
  +2.54226340328017608172e+00
  +2.45991503751115470067e+00
  +2.35929429684226166231e+00
  +2.24947925662786696321e+00
  +2.14136163801735657231e+00
  +2.02654323726601370836e+00
  +1.91081974654802388969e+00
  +1.78067357969074890889e+00
  +1.68503434167950749689e+00
  +1.59433195811329087022e+00
  +1.51006103245281386727e+00
  +1.42460172014563402065e+00
  +1.32485264129154045598e+00
  +1.26666112185193213691e+00
  +1.18322323462196155042e+00
  +1.11381610180185397496e+00
  +1.06189906741245176924e+00
  +9.92745870054481560629e-01
  +9.30123372209898935381e-01
  +8.71792737977370446600e-01
  +8.34490840096436148343e-01
  +7.75347237058669591647e-01
  +7.36842384969862540522e-01
  +6.96543766146382026250e-01
  +6.50610837068764658042e-01
  +6.05005747471408561466e-01
  +5.62449263682684774679e-01
  +5.31010160531762753777e-01
  +4.97935938125923460706e-01
  +4.63221708340209148425e-01
  +4.30904893851741521704e-01
  +4.10727038354975981793e-01
  +3.70450620100979288729e-01
  +3.41401166805890610156e-01
  +3.03032486210742024735e-01
  +2.84167656480298513877e-01
  +2.37289472164092130058e-01
  +2.21192694485812774152e-01
  +1.92886351472801059748e-01
  +1.47440361926561069872e-01
  +1.20789998007793400459e-01
  +9.20156495178017647119e-02
  +5.34070108017478811790e-02
  +1.62814122573026257013e-02
  -1.44168902432366234645e-02
  -4.28488390465957200148e-02
  -8.85688288356918651534e-02
  -1.22287952636410623963e-01
  -1.67623422497253427021e-01
  -2.06470222011746473711e-01
  -2.45409635203318626795e-01
  -2.97475201502109376506e-01
  -3.41266724840166180144e-01
  -3.95739296938970808171e-01
  -4.58999722801031295738e-01
  -4.95422925344944975468e-01
  -5.60065493494302901745e-01
  -6.13292866483069909478e-01
  -6.86075116569979548409e-01
  -7.33860848112601882320e-01
  -8.13966528906187591907e-01
  -8.70890491145765333059e-01
  -9.40602113217407165280e-01
  -1.01223596758576772636e+00
  -1.07797421930161441139e+00
  -1.16530177096422971061e+00
  -1.23464535562727872886e+00
  -1.31417603688379669435e+00
  -1.39548268115864315675e+00
  -1.48088680169736042203e+00
  -1.56008084164808558114e+00
  -1.64324105411307685998e+00
  -1.72534143270088291544e+00
  -1.81700739034262070959e+00
  -1.90459275264257499316e+00
  -1.99471700772787507994e+00
  -2.09707937844239822311e+00
  -2.16622876895801974584e+00
  -2.27359712434631378031e+00
  -2.36185605167072365518e+00
  -2.46260318514508425025e+00
  -2.55575002370368009608e+00
  -2.65013611280582317420e+00
  -2.74314460957515127149e+00
  -2.83774071931585147865e+00
  -2.92797185152871097813e+00
  -3.03287188082038694503e+00
  -3.12640725928864204874e+00
  -3.20688864901581149880e+00
  -3.30231947519650193001e+00
  -3.40131843860963645199e+00
  -3.49541683003486358672e+00
  -3.58843115019104619279e+00
  -3.68433855898436801724e+00
  -3.78292485886444307397e+00
  -3.87385167551102682637e+00
  -3.94792805782911138124e+00
  -4.04940551295068473792e+00
  -4.13794496537707701123e+00
  -4.21511864587996676335e+00
  -4.30368378387219951975e+00
  -4.37786155388113229492e+00
  -4.46755629370105378229e+00
  -4.55543970621405058807e+00
  -4.63190719537294715025e+00
  -4.70743410793184668961e+00
  -4.78720321546775906540e+00
  -4.86845319275011867433e+00
  -4.94575133690516643981e+00
  -5.01396202764762133341e+00
  -5.08755712226551892741e+00
  -5.15716071079516868991e+00
  -5.21766171537545631054e+00
  -5.28547640218349812358e+00
  -5.34761048636139513235e+00
  -5.40944180261917395569e+00
  -5.47076894151217185680e+00
  -5.53451026084680552941e+00
  -5.59394469241129144166e+00
  -5.65858368088490326642e+00
  -5.71130923240456223056e+00
  -5.75612184460423392807e+00
  -5.81880265390104334244e+00
  -5.85931311848522717867e+00
  -5.90050616948112249815e+00
  -5.94773054398540779175e+00
  -5.98666697176715878470e+00
  -6.03328554706222597304e+00
  -6.07884482058368647017e+00
  -6.11686188042897427408e+00
  -6.15470113322271750178e+00
</dep>
<dep dBS22 frequency>
  -1.84383621673370541316e+01
  -1.83411210351989382161e+01
  -1.80605143443245168555e+01
  -1.76448977613316095869e+01
  -1.71871122472953956617e+01
  -1.67400999393228175904e+01
  -1.63408410779423149961e+01
  -1.59876667313223315148e+01
  -1.57070004482642548993e+01
  -1.54691338981060688695e+01
  -1.52730589667223526362e+01
  -1.51259166917991763057e+01
  -1.50091537264136025698e+01
  -1.49148127666246459455e+01
  -1.48505061914044524940e+01
  -1.47970752395391880185e+01
  -1.47618326544748867946e+01
  -1.47278726582894492481e+01
  -1.47059942556177389861e+01
  -1.47089686468977234313e+01
  -1.47133030768856105652e+01
  -1.47222475128534728839e+01
  -1.47319915590850385456e+01
  -1.47645459568430901243e+01
  -1.47856094326428930685e+01
  -1.48161104708647641814e+01
  -1.48583697583499958483e+01
  -1.48979101897062804483e+01
  -1.49401685454251058616e+01
  -1.49865034477265020030e+01
  -1.50332217968428558663e+01
  -1.50889544496900835924e+01
  -1.51492617782059717513e+01
  -1.52086505560364937395e+01
  -1.52684866298006127749e+01
  -1.53342166440711107356e+01
  -1.53910037152533902827e+01
  -1.54644541815239300320e+01
  -1.55363796888610732339e+01
  -1.56166406238699693176e+01
  -1.56915393535167808636e+01
  -1.57683219582671121373e+01
  -1.58526827712524180924e+01
  -1.59281842015620114239e+01
  -1.60133189943767924035e+01
  -1.61004186095531345302e+01
  -1.61763372637955811228e+01
  -1.62714151858445745802e+01
  -1.63626499935220479642e+01
  -1.64461146034885459244e+01
  -1.65327250066974364984e+01
  -1.66300164063920696833e+01
  -1.67126074299833291548e+01
  -1.67958896802531114645e+01
  -1.68908270684575079201e+01
  -1.69703185971828389711e+01
  -1.70484159947146736158e+01
  -1.71217978551400200615e+01
  -1.71858207423848696749e+01
  -1.72578017171350381886e+01
  -1.73180134330505843820e+01
  -1.73711310803132015224e+01
  -1.74255821030606874444e+01
  -1.74693410740973540385e+01
  -1.74948067025239453187e+01
  -1.75358764363053332147e+01
  -1.75547231437053312675e+01
  -1.75687223120057396386e+01
  -1.75673719290031300488e+01
  -1.75651887485434521352e+01
  -1.75339575949006452049e+01
  -1.75350937362485765902e+01
  -1.75031414922778836285e+01
  -1.74635081866697277064e+01
  -1.74135810373696209297e+01
  -1.73640489430035174223e+01
  -1.73027473787337271460e+01
  -1.72421953017406117681e+01
  -1.71748436546763656452e+01
  -1.71006220738587160213e+01
  -1.70154605663975182495e+01
  -1.69425677137466088595e+01
  -1.68513026040913089787e+01
  -1.67667118868425149003e+01
  -1.66693125218656241771e+01
  -1.65853097566272182917e+01
  -1.64901022852032355104e+01
  -1.64084140646598726221e+01
  -1.63044867088121101517e+01
  -1.62173886424540434348e+01
  -1.61270587489966317207e+01
  -1.60353933154472088063e+01
  -1.59485278546827569102e+01
  -1.58574049521272577579e+01
  -1.57670852976364521680e+01
  -1.56842695196956647408e+01
  -1.56025978902602613374e+01
  -1.55225161637183735053e+01
  -1.54430431109406107737e+01
  -1.53635425761348543006e+01
  -1.52891735046352152949e+01
  -1.52176063671791190757e+01
  -1.51472155504092054201e+01
  -1.50756528076435465380e+01
  -1.50075987123864926787e+01
  -1.49433089862830126293e+01
  -1.48779188128666035595e+01
  -1.48208377756440015105e+01
  -1.47632798249593744089e+01
  -1.47083896020874327348e+01
  -1.46561813333798518499e+01
  -1.46108018215627701863e+01
  -1.45569197918595207852e+01
  -1.45122836561303003577e+01
  -1.44649321853433772134e+01
  -1.44233075031337332206e+01
  -1.43809968524549258717e+01
  -1.43426389641152489673e+01
  -1.42989280181094748912e+01
  -1.42689188602735423927e+01
  -1.42382378545496415256e+01
  -1.42035063172310938029e+01
  -1.41763302800143655702e+01
  -1.41523932854140905846e+01
  -1.41298503912482242839e+01
  -1.41045266874837871285e+01
  -1.40820194265421356761e+01
  -1.40578822477669298507e+01
  -1.40409337418991331248e+01
  -1.40184732875669268992e+01
  -1.40069394405842384543e+01
  -1.39945752239442544607e+01
  -1.39796828210156753869e+01
  -1.39692221355357144574e+01
  -1.39670807562521233081e+01
  -1.39603411944086133190e+01
  -1.39578924989188912775e+01
  -1.39535908616697952311e+01
  -1.39473039288055193907e+01
  -1.39519898440051210997e+01
  -1.39498272147257331710e+01
</dep>
<dep K frequency>
  +2.73779822905051332782e+02
  +2.11825843173194357405e+02
  +1.75885820537530548791e+02
  +1.51331188913407459040e+02
  +1.35274987981822931715e+02
  +1.23258202910929313134e+02
  +1.16103766299040273680e+02
  +1.10004143006298519936e+02
  +1.07096952726604072836e+02
  +1.04446639259385051446e+02
  +1.02550007915116822232e+02
  +1.01779130815082780259e+02
  +1.01448909962958524034e+02
  +1.00412213199851166223e+02
  +1.00521373880883672314e+02
  +9.98742073348997649873e+01
  +9.96066390378700248220e+01
  +1.00950474630327889258e+02
  +9.95320739056525667365e+01
  +9.97564540423486931786e+01
  +9.97244130077471737650e+01
  +9.98450384261316656875e+01
  +9.87914060994440603736e+01
  +9.83092823320457256386e+01
  +9.78250533848103742685e+01
  +9.71482117280898478384e+01
  +9.65507835141926307188e+01
  +9.58870487749047981652e+01
  +9.46542311958162088104e+01
  +9.45436284649897942245e+01
  +9.33272300740845537348e+01
  +9.24915273194376510446e+01
  +9.19765243381412176404e+01
  +9.09682697240847630837e+01
  +9.03050191700683768659e+01
  +8.92248386057031694918e+01
  +8.78856143557562177193e+01
  +8.73612415491155047675e+01
  +8.64724556546496501142e+01
  +8.52383879172445375616e+01
  +8.46505436761582217287e+01
  +8.32569487412144866312e+01
  +8.25543085371811997675e+01
  +8.12621416169524763973e+01
  +8.09209697598030999188e+01
  +7.97524472158400925537e+01
  +7.89165808166408169200e+01
  +7.79100589146501363302e+01
  +7.68657760302853176881e+01
  +7.58675242267372027527e+01
  +7.56833121302292539667e+01
  +7.44207939865596586060e+01
  +7.39323906812201130379e+01
  +7.34169931710393939284e+01
  +7.22249593846337347713e+01
  +7.14959086322554355775e+01
  +7.12968217177464396173e+01
  +7.06605339504064886569e+01
  +6.99692218141122594943e+01
  +6.92624171610035119784e+01
  +6.90336272995246815753e+01
  +6.87750764130517922013e+01
  +6.83052088581371634746e+01
  +6.80017662417151882437e+01
  +6.79078177569802363678e+01
  +6.70941761489544461483e+01
  +6.70950742032666767045e+01
  +6.66902044568278000725e+01
  +6.64999722939766826357e+01
  +6.61610654706324368135e+01
  +6.67580927426899819466e+01
  +6.60973851273733430389e+01
  +6.60765408828033997679e+01
  +6.60818840052228893001e+01
  +6.62951085078856579003e+01
  +6.63789530293946370421e+01
  +6.64892193334373473590e+01
  +6.64481042161324069184e+01
  +6.65834694032807448139e+01
  +6.69294723649946661226e+01
  +6.70999008783218044982e+01
  +6.72580752505026708832e+01
  +6.73915068950262252656e+01
  +6.77489060923758898980e+01
  +6.80379465034536394796e+01
  +6.82963462375193302023e+01
  +6.88143764039264311805e+01
  +6.88998025178335069540e+01
  +6.94143100108763775324e+01
  +6.99566028522556848657e+01
  +7.04571336171112392321e+01
  +7.05921246964840207738e+01
  +7.11535513882136712027e+01
  +7.17803443648545282940e+01
  +7.22684718714741194390e+01
  +7.25249857496956025216e+01
  +7.31920910514356535259e+01
