<Qucs Dataset 1.0.5>
<indep frequency 141>
  +1.00000000000000000000e+08
  +1.10000000000000000000e+08
  +1.20000000000000000000e+08
  +1.30000000000000000000e+08
  +1.40000000000000000000e+08
  +1.50000000000000000000e+08
  +1.60000000000000000000e+08
  +1.70000000000000000000e+08
  +1.80000000000000000000e+08
  +1.90000000000000000000e+08
  +2.00000000000000000000e+08
  +2.10000000000000000000e+08
  +2.20000000000000000000e+08
  +2.30000000000000000000e+08
  +2.40000000000000000000e+08
  +2.50000000000000000000e+08
  +2.60000000000000000000e+08
  +2.70000000000000000000e+08
  +2.80000000000000000000e+08
  +2.90000000000000000000e+08
  +3.00000000000000000000e+08
  +3.10000000000000000000e+08
  +3.20000000000000000000e+08
  +3.30000000000000000000e+08
  +3.40000000000000000000e+08
  +3.50000000000000000000e+08
  +3.60000000000000000000e+08
  +3.70000000000000000000e+08
  +3.80000000000000000000e+08
  +3.90000000000000000000e+08
  +4.00000000000000000000e+08
  +4.10000000000000000000e+08
  +4.20000000000000000000e+08
  +4.30000000000000000000e+08
  +4.40000000000000000000e+08
  +4.50000000000000000000e+08
  +4.60000000000000000000e+08
  +4.70000000000000000000e+08
  +4.80000000000000000000e+08
  +4.90000000000000000000e+08
  +5.00000000000000000000e+08
  +5.10000000000000000000e+08
  +5.20000000000000000000e+08
  +5.30000000000000000000e+08
  +5.40000000000000000000e+08
  +5.50000000000000000000e+08
  +5.60000000000000000000e+08
  +5.70000000000000000000e+08
  +5.80000000000000000000e+08
  +5.90000000000000000000e+08
  +6.00000000000000000000e+08
  +6.10000000000000000000e+08
  +6.20000000000000000000e+08
  +6.30000000000000000000e+08
  +6.40000000000000000000e+08
  +6.50000000000000000000e+08
  +6.60000000000000000000e+08
  +6.70000000000000000000e+08
  +6.80000000000000000000e+08
  +6.90000000000000000000e+08
  +7.00000000000000000000e+08
  +7.10000000000000000000e+08
  +7.20000000000000000000e+08
  +7.30000000000000000000e+08
  +7.40000000000000000000e+08
  +7.50000000000000000000e+08
  +7.60000000000000000000e+08
  +7.70000000000000000000e+08
  +7.80000000000000000000e+08
  +7.90000000000000000000e+08
  +8.00000000000000000000e+08
  +8.10000000000000000000e+08
  +8.20000000000000000000e+08
  +8.30000000000000000000e+08
  +8.40000000000000000000e+08
  +8.50000000000000000000e+08
  +8.60000000000000000000e+08
  +8.70000000000000000000e+08
  +8.80000000000000000000e+08
  +8.90000000000000000000e+08
  +9.00000000000000000000e+08
  +9.10000000000000000000e+08
  +9.20000000000000000000e+08
  +9.30000000000000000000e+08
  +9.40000000000000000000e+08
  +9.50000000000000000000e+08
  +9.60000000000000000000e+08
  +9.70000000000000000000e+08
  +9.80000000000000000000e+08
  +9.90000000000000000000e+08
  +1.00000000000000000000e+09
  +1.01000000000000000000e+09
  +1.02000000000000000000e+09
  +1.03000000000000000000e+09
  +1.04000000000000000000e+09
  +1.05000000000000000000e+09
  +1.06000000000000000000e+09
  +1.07000000000000000000e+09
  +1.08000000000000000000e+09
  +1.09000000000000000000e+09
  +1.10000000000000000000e+09
  +1.11000000000000000000e+09
  +1.12000000000000000000e+09
  +1.13000000000000000000e+09
  +1.14000000000000000000e+09
  +1.15000000000000000000e+09
  +1.16000000000000000000e+09
  +1.17000000000000000000e+09
  +1.18000000000000000000e+09
  +1.19000000000000000000e+09
  +1.20000000000000000000e+09
  +1.21000000000000000000e+09
  +1.22000000000000000000e+09
  +1.23000000000000000000e+09
  +1.24000000000000000000e+09
  +1.25000000000000000000e+09
  +1.26000000000000000000e+09
  +1.27000000000000000000e+09
  +1.28000000000000000000e+09
  +1.29000000000000000000e+09
  +1.30000000000000000000e+09
  +1.31000000000000000000e+09
  +1.32000000000000000000e+09
  +1.33000000000000000000e+09
  +1.34000000000000000000e+09
  +1.35000000000000000000e+09
  +1.36000000000000000000e+09
  +1.37000000000000000000e+09
  +1.38000000000000000000e+09
  +1.39000000000000000000e+09
  +1.40000000000000000000e+09
  +1.41000000000000000000e+09
  +1.42000000000000000000e+09
  +1.43000000000000000000e+09
  +1.44000000000000000000e+09
  +1.45000000000000000000e+09
  +1.46000000000000000000e+09
  +1.47000000000000000000e+09
  +1.48000000000000000000e+09
  +1.49000000000000000000e+09
  +1.50000000000000000000e+09
</indep>
<dep dBS12 frequency>
  -5.31000965599311030019e+01
  -4.99448935545161418759e+01
  -4.73182109761342104548e+01
  -4.49414786319396029057e+01
  -4.28102596252464167037e+01
  -4.07995440055334128715e+01
  -3.90361348309081108710e+01
  -3.73395414590888847783e+01
  -3.59199846504493720545e+01
  -3.45767062656895518558e+01
  -3.33841092124882479197e+01
  -3.24209156090009216200e+01
  -3.15829577617904959652e+01
  -3.07743094774042660333e+01
  -3.01807691742807193691e+01
  -2.96118272836760176858e+01
  -2.91641525254316320570e+01
  -2.89255260838931214096e+01
  -2.84741502043004075517e+01
  -2.82430398980638308615e+01
  -2.80303369478244768231e+01
  -2.78709260578652582296e+01
  -2.75890562576978695120e+01
  -2.74446829451754581441e+01
  -2.72694885560272339831e+01
  -2.71167790769877079526e+01
  -2.70071715742413012151e+01
  -2.68727333428452972441e+01
  -2.67017265635244704924e+01
  -2.66420018925231403273e+01
  -2.65064923250478692296e+01
  -2.63873634495868998329e+01
  -2.63262493174340228563e+01
  -2.62111248241369381162e+01
  -2.61298047165989615337e+01
  -2.60054411613220928245e+01
  -2.58525595368709630861e+01
  -2.58027686429358595888e+01
  -2.57142918634268795586e+01
  -2.55932089424724722448e+01
  -2.55353296309107626882e+01
  -2.54083554684673948998e+01
  -2.53309704517681097968e+01
  -2.51994694022470078210e+01
  -2.51624256955641598665e+01
  -2.50539086990827826185e+01
  -2.49426933044955632113e+01
  -2.48550387723737742363e+01
  -2.47486729919350345597e+01
  -2.46228659467937340821e+01
  -2.46062463106291886561e+01
  -2.44719765887779843183e+01
  -2.44058668774801574841e+01
  -2.43398992906133102565e+01
  -2.42054211293624597090e+01
  -2.41208390286061700181e+01
  -2.40733441840982891335e+01
  -2.39886789689682977667e+01
  -2.38805108850806213638e+01
  -2.37772112069134387013e+01
  -2.37328435035131235509e+01
  -2.36674000552560990229e+01
  -2.35852600681560033991e+01
  -2.35100155200574505443e+01
  -2.34461321812720804303e+01
  -2.33247254242059582907e+01
  -2.32716404994066330403e+01
  -2.31792744885185051373e+01
  -2.30860162746113140031e+01
  -2.30041896370149814288e+01
  -2.30012050808155343873e+01
  -2.28700264970787117136e+01
  -2.27982349965588007024e+01
  -2.27279467164489901165e+01
  -2.26861574658471276678e+01
  -2.26056767995958765027e+01
  -2.25456620752095417970e+01
  -2.24552465115097064086e+01
  -2.23855683800437432751e+01
  -2.23355776489252804140e+01
  -2.22668793165152365532e+01
  -2.21980277033762973815e+01
  -2.21185485648511672707e+01
  -2.20593259123818761225e+01
  -2.19909035621748500944e+01
  -2.19223623404556100525e+01
  -2.18629590934616757636e+01
  -2.17957586437556969372e+01
  -2.17272878728362783818e+01
  -2.16891519315960401570e+01
  -2.16309071002212149892e+01
  -2.15333327514089205579e+01
  -2.14856964111356596447e+01
  -2.14484042579304059473e+01
  -2.13911527591730532549e+01
  -2.13139703477760065198e+01
  -2.12666426558871570762e+01
  -2.12196181179113523285e+01
  -2.11121417688807042623e+01
  -2.10749001371470576771e+01
  -2.10273843340678112668e+01
  -2.09999922595283194937e+01
  -2.09127499649177934771e+01
  -2.08755442171902032555e+01
  -2.07982271614805043214e+01
  -2.07311965208060335897e+01
  -2.06940578914060182569e+01
  -2.06370351011434181032e+01
  -2.05999443032270264098e+01
  -2.05228860676348645597e+01
  -2.04758445870967378255e+01
  -2.04383621035661491305e+01
  -2.03807972104917247691e+01
  -2.03429230505533951145e+01
  -2.02554392493486368210e+01
  -2.02276194237160389378e+01
  -2.02097778017809375228e+01
  -2.01322433188981442242e+01
  -2.00547633068864996631e+01
  -2.00367696529047591980e+01
  -1.99991387127895627884e+01
  -1.99016339359122973462e+01
  -1.98636827257071928443e+01
  -1.98361448158397344343e+01
  -1.97880754923381054766e+01
  -1.97398267774027331711e+01
  -1.96915606120632418197e+01
  -1.96229715102366952806e+01
  -1.95746189535950492200e+01
  -1.95063546550998587747e+01
  -1.94885998635006814084e+01
  -1.94402101089051697613e+01
  -1.93915590371534030112e+01
  -1.93332436471436750480e+01
  -1.93155519845155403402e+01
  -1.92569592407873528828e+01
  -1.92187900346028648357e+01
  -1.91803880009196880962e+01
  -1.90920683847089556195e+01
  -1.90735578284013449490e+01
  -1.90352010632556343239e+01
</dep>
<dep dBS21 frequency>
  +2.13990344006890165218e+00
  +4.69510644548385958075e+00
  +6.98178902386578315031e+00
  +8.96852136806039190731e+00
  +1.08197403747535876306e+01
  +1.24704559944665867022e+01
  +1.39738651690918818105e+01
  +1.53304585409111098215e+01
  +1.65000153495506260981e+01
  +1.75432937343104491390e+01
  +1.84558907875117519382e+01
  +1.91990843909990722693e+01
  +1.98170422382095026137e+01
  +2.03256905225957282823e+01
  +2.07192308257192792098e+01
  +2.10081727163239833089e+01
  +2.12058474745683653850e+01
  +2.13044739161068754640e+01
  +2.14458497956995941536e+01
  +2.15169601019361742544e+01
  +2.15596630521755336929e+01
  +2.15590739421347450389e+01
  +2.15509437423021275038e+01
  +2.15353170548245351767e+01
  +2.15005114439727691433e+01
  +2.14532209230122958843e+01
  +2.14028284257586953743e+01
  +2.13372666571547107139e+01
  +2.12682734364755319234e+01
  +2.11979981074768630833e+01
  +2.11435076749521400075e+01
  +2.10626365504131030093e+01
  +2.09937506825659738752e+01
  +2.09288751758630588995e+01
  +2.08501952834010495508e+01
  +2.07745588386779047596e+01
  +2.07074404631290356349e+01
  +2.06372313570641381375e+01
  +2.05657081365731144729e+01
  +2.04867910575275260499e+01
  +2.04146703690892366012e+01
  +2.03516445315326031107e+01
  +2.02690295482318951770e+01
  +2.02005305977529943107e+01
  +2.01175743044358412703e+01
  +2.00560913009172310240e+01
  +1.99773066955044349413e+01
  +1.99149612276262288901e+01
  +1.98413270080649652982e+01
  +1.97571340532062649231e+01
  +1.96937536893708156072e+01
  +1.96180234112220084342e+01
  +1.95441331225198524635e+01
  +1.94701007093866955699e+01
  +1.93945788706375452648e+01
  +1.93291609713938328241e+01
  +1.92566558159017091612e+01
  +1.91913210310317019491e+01
  +1.91194891149193786362e+01
  +1.90527887930865666988e+01
  +1.89871564964868753123e+01
  +1.89125999447439028245e+01
  +1.88447399318439998694e+01
  +1.87699844799425505926e+01
  +1.86938678187279236909e+01
  +1.86352745757940425619e+01
  +1.85583595005933617017e+01
  +1.84907255114814930153e+01
  +1.84139837253886859969e+01
  +1.83558103629850180027e+01
  +1.82787949191844631969e+01
  +1.82099735029212830284e+01
  +1.81417650034411970239e+01
  +1.80720532835510141467e+01
  +1.80138425341528716217e+01
  +1.79343232004041261973e+01
  +1.78743379247904563556e+01
  +1.78047534884902916019e+01
  +1.77344316199562506142e+01
  +1.76644223510747195860e+01
  +1.76031206834847679943e+01
  +1.75319722966237065975e+01
  +1.74714514351488290345e+01
  +1.74006740876181211775e+01
  +1.73390964378251482003e+01
  +1.72676376595443947792e+01
  +1.71970409065383229574e+01
  +1.71442413562443007891e+01
  +1.70727121271637187760e+01
  +1.70108480684039626851e+01
  +1.69390928997787852950e+01
  +1.68766672485910760315e+01
  +1.68143035888643339604e+01
  +1.67515957420695897895e+01
  +1.66888472408269450398e+01
  +1.66260296522239947592e+01
  +1.65533573441128432080e+01
  +1.64903818820886520768e+01
  +1.64378582311193000010e+01
  +1.63750998628529380596e+01
  +1.63126156659321850384e+01
  +1.62500077404716805063e+01
  +1.61872500350822008386e+01
  +1.61244557828097896390e+01
  +1.60617728385195022156e+01
  +1.59988034791939632839e+01
  +1.59559421085939856511e+01
  +1.58829648988565850232e+01
  +1.58200556967729788482e+01
  +1.57671139323651328112e+01
  +1.57041554129032689957e+01
  +1.56516378964338453983e+01
  +1.55892027895082723177e+01
  +1.55270769494465987748e+01
  +1.54745607506513600526e+01
  +1.54223805762839596412e+01
  +1.53702221982190589955e+01
  +1.53077566811018535020e+01
  +1.52552366931134955053e+01
  +1.52032303470952427915e+01
  +1.51408612872104431091e+01
  +1.50883660640877010906e+01
  +1.50363172742928057346e+01
  +1.49738551841602642867e+01
  +1.49219245076618971524e+01
  +1.48701732225972662604e+01
  +1.48184393879367561908e+01
  +1.47670284897633052879e+01
  +1.47153810464049463747e+01
  +1.46636453449001358251e+01
  +1.46114001364993129073e+01
  +1.45697898910948318019e+01
  +1.45084409628465937914e+01
  +1.44667563528563221098e+01
  +1.44144480154844618625e+01
  +1.43630407592126410066e+01
  +1.43112099653971380775e+01
  +1.42596119990803060773e+01
  +1.42079316152910433146e+01
  +1.41564421715986519246e+01
  +1.41147989367443678077e+01
</dep>
<dep dBS22 frequency>
  -3.13379005706467372860e+00
  -2.68475912339427225106e+00
  -2.29415412409419472439e+00
  -1.96345918594541557489e+00
  -1.72372473757020117091e+00
  -1.57808575271422535380e+00
  -1.54782090623192924994e+00
  -1.62357703697008770582e+00
  -1.82866742046673325106e+00
  -2.16143822813807107153e+00
  -2.61975946749232324606e+00
  -3.20494099572949320276e+00
  -3.94129168519197436993e+00
  -4.84668522430801029799e+00
  -5.88723039664400538129e+00
  -6.97553752473056398742e+00
  -8.33715686798239730138e+00
  -9.40682635146550971683e+00
  -1.08573429839166770705e+01
  -1.25245492815905876682e+01
  -1.42355950217165414529e+01
  -1.59217323702465023416e+01
  -1.80656086458981448573e+01
  -2.06422116272120987901e+01
  -2.30064879742945223029e+01
  -2.52878342151054944509e+01
  -2.64859690740222610827e+01
  -2.60376229181387159883e+01
  -2.44274052857244186043e+01
  -2.32044606120730207977e+01
  -2.17748549739155734528e+01
  -2.08079071466051424011e+01
  -1.98402181581043315362e+01
  -1.90967685251049488215e+01
  -1.85064455632188042955e+01
  -1.79883937133023614763e+01
  -1.76504878640511897459e+01
  -1.73268609394379922151e+01
  -1.70577562506708204637e+01
  -1.67667302871800778519e+01
  -1.66003308858892282274e+01
  -1.63761786372001409973e+01
  -1.62745467162322832166e+01
  -1.61628194619632594708e+01
  -1.61845565280726404467e+01
  -1.61093824255077322505e+01
  -1.61377721829738121073e+01
  -1.61015485411807475202e+01
  -1.60918117282290111802e+01
  -1.60890968033621710731e+01
  -1.61798000829063255424e+01
  -1.61473710160639676303e+01
  -1.62874915976840597409e+01
  -1.63707221381379781633e+01
  -1.64325032358217306694e+01
  -1.65253739488958864001e+01
  -1.66663930147398211545e+01
  -1.68226751480506209191e+01
  -1.70807673816229446118e+01
  -1.71142814832023120175e+01
  -1.72890064026424603583e+01
  -1.75539634660535384114e+01
  -1.76183405487443494053e+01
  -1.79765262450317990783e+01
  -1.81951912092477563476e+01
  -1.83156341221444733947e+01
  -1.85747140627727631568e+01
  -1.88297070157550479053e+01
  -1.91064640965749461543e+01
  -1.93468843646033334949e+01
  -1.97773055289701602533e+01
  -1.99913989867405845757e+01
  -2.03035337278421152973e+01
  -2.05789383198204767211e+01
  -2.09585279866332818699e+01
  -2.13701771097669315225e+01
  -2.16744855264563369701e+01
  -2.20119018598509406104e+01
  -2.24551938297616651141e+01
  -2.29265419892275517100e+01
  -2.31877315866482973661e+01
  -2.36712723613077358209e+01
  -2.40618326930343684467e+01
  -2.46258228308036635212e+01
  -2.49878510298167171300e+01
  -2.54862800752510345603e+01
  -2.60972603420622064618e+01
  -2.65974529468885734218e+01
  -2.70212280452447863865e+01
  -2.75825694712983526813e+01
  -2.81761376722977097131e+01
  -2.86418003195001276140e+01
  -2.92787562116961517233e+01
  -2.96886686135080104521e+01
  -3.02793280192423317487e+01
  -3.07107847557604216604e+01
  -3.11943500447598012215e+01
  -3.17254083716660808534e+01
  -3.19305938433877187776e+01
  -3.24893497526411749732e+01
  -3.25444445714016552529e+01
  -3.30662026353942763990e+01
  -3.29121755535141531368e+01
  -3.27504796584912440949e+01
  -3.25260349687984131606e+01
  -3.22837901991163676030e+01
  -3.18399348422243768653e+01
  -3.16112045331029136719e+01
  -3.14015469854742832467e+01
  -3.11028473167559553758e+01
  -3.07769063628035546287e+01
  -3.05938864067444882266e+01
  -3.01786364679321579274e+01
  -3.00294299914681133146e+01
  -2.96525228038055672641e+01
  -2.92900982613074667427e+01
  -2.87443924863853048635e+01
  -2.85223580352922283510e+01
  -2.78238263597629824631e+01
  -2.76518563237281256306e+01
  -2.73956077643264066523e+01
  -2.69263524208780999913e+01
  -2.67448830634750009949e+01
  -2.63399742726195142950e+01
  -2.61073037767889957195e+01
  -2.58846216583384602927e+01
  -2.56099962155675378028e+01
  -2.53893839107957646206e+01
  -2.51064512425582684330e+01
  -2.46511153158847591271e+01
  -2.41677962502512073684e+01
  -2.38881949657141703369e+01
  -2.35888801261381253482e+01
  -2.33111742854072687692e+01
  -2.29174479573888731920e+01
  -2.26861404329743265862e+01
  -2.24008115952452939723e+01
  -2.21221978602696900396e+01
  -2.18341021618864949971e+01
  -2.16110381454579822957e+01
  -2.12598611577822147467e+01
</dep>
<dep K frequency>
  +7.38985419160333023569e+00
  +4.26645180998158490837e+00
  +2.84376461741534036776e+00
  +2.11685064483553331272e+00
  +1.72950164006653506199e+00
  +1.50792184264557627138e+00
  +1.38676182989302199111e+00
  +1.30538100265837786473e+00
  +1.26589809799174601856e+00
  +1.23499290638524783503e+00
  +1.21253448497556060026e+00
  +1.20131686950345750731e+00
  +1.19430121401610356280e+00
  +1.18431022133539864960e+00
  +1.18220595007737094839e+00
  +1.17518990300865255882e+00
  +1.17275831704666511079e+00
  +1.17674940739806976886e+00
  +1.16609379142705171795e+00
  +1.16766230916262303552e+00
  +1.16760525259453906699e+00
  +1.16912038029658771343e+00
  +1.16278733215504548326e+00
  +1.16316542078587015219e+00
  +1.16165320411979533510e+00
  +1.15995480113402882338e+00
  +1.16077184103790820302e+00
  +1.16007001684578625600e+00
  +1.15645152467615730529e+00
  +1.15994229291995409881e+00
  +1.15677582044180837784e+00
  +1.15692441755419994642e+00
  +1.15890412366382289377e+00
  +1.15750982331937857239e+00
  +1.15869159975949775898e+00
  +1.15712778229521751072e+00
  +1.15289486722657352757e+00
  +1.15541318095283007672e+00
  +1.15527781577337917973e+00
  +1.15362419833107887612e+00
  +1.15545235644683952358e+00
  +1.15192774985308088453e+00
  +1.15304154069585829134e+00
  +1.14996739712208717599e+00
  +1.15373965188025651152e+00
  +1.15136929603646542830e+00
  +1.15020397796039453020e+00
  +1.14916391985092403161e+00
  +1.14757518091184662623e+00
  +1.14535136762579203840e+00
  +1.14899837957942696498e+00
  +1.14546537360631583979e+00
  +1.14660492964524185489e+00
  +1.14758758784161885025e+00
  +1.14411734113256491341e+00
  +1.14323952317602750561e+00
  +1.14528249724641395524e+00
  +1.14445393113925586448e+00
  +1.14272381757177354800e+00
  +1.14036823770172235371e+00
  +1.14197372984691436493e+00
  +1.14298909038420326567e+00
  +1.14197066122258861220e+00
  +1.14248365604257906547e+00
  +1.14340924399364984865e+00
  +1.13931829083842983685e+00
  +1.14097613255552898792e+00
  +1.13947151863779483350e+00
  +1.13849214398348852484e+00
  +1.13689783242220832093e+00
  +1.14182986949730191917e+00
  +1.13760044822051731295e+00
  +1.13724781505943406401e+00
  +1.13707380565252558213e+00
  +1.13795565794557052008e+00
  +1.13794761528555699037e+00
  +1.13767865712238713805e+00
  +1.13604163242750089147e+00
  +1.13595710295843388415e+00
  +1.13702697295005106248e+00
  +1.13614706145342925225e+00
  +1.13605719384154935092e+00
  +1.13433680130399516806e+00
  +1.13479274648865513520e+00
  +1.13393223913139218340e+00
  +1.13360057938846936487e+00
  +1.13395204913225788879e+00
  +1.13265072134359656708e+00
  +1.13235731755000568199e+00
  +1.13335208548758092917e+00
  +1.13362055370769465590e+00
  +1.13100847116798264302e+00
  +1.13169647475409429482e+00
  +1.13265842881186418190e+00
  +1.13252395948324280361e+00
  +1.13097955151516238459e+00
  +1.13214924346401568656e+00
