<Qucs Dataset 1.0.5>
<indep frequency 141>
  +1.00000000000000000000e+08
  +1.10000000000000000000e+08
  +1.20000000000000000000e+08
  +1.30000000000000000000e+08
  +1.40000000000000000000e+08
  +1.50000000000000000000e+08
  +1.60000000000000000000e+08
  +1.70000000000000000000e+08
  +1.80000000000000000000e+08
  +1.90000000000000000000e+08
  +2.00000000000000000000e+08
  +2.10000000000000000000e+08
  +2.20000000000000000000e+08
  +2.30000000000000000000e+08
  +2.40000000000000000000e+08
  +2.50000000000000000000e+08
  +2.60000000000000000000e+08
  +2.70000000000000000000e+08
  +2.80000000000000000000e+08
  +2.90000000000000000000e+08
  +3.00000000000000000000e+08
  +3.10000000000000000000e+08
  +3.20000000000000000000e+08
  +3.30000000000000000000e+08
  +3.40000000000000000000e+08
  +3.50000000000000000000e+08
  +3.60000000000000000000e+08
  +3.70000000000000000000e+08
  +3.80000000000000000000e+08
  +3.90000000000000000000e+08
  +4.00000000000000000000e+08
  +4.10000000000000000000e+08
  +4.20000000000000000000e+08
  +4.30000000000000000000e+08
  +4.40000000000000000000e+08
  +4.50000000000000000000e+08
  +4.60000000000000000000e+08
  +4.70000000000000000000e+08
  +4.80000000000000000000e+08
  +4.90000000000000000000e+08
  +5.00000000000000000000e+08
  +5.10000000000000000000e+08
  +5.20000000000000000000e+08
  +5.30000000000000000000e+08
  +5.40000000000000000000e+08
  +5.50000000000000000000e+08
  +5.60000000000000000000e+08
  +5.70000000000000000000e+08
  +5.80000000000000000000e+08
  +5.90000000000000000000e+08
  +6.00000000000000000000e+08
  +6.10000000000000000000e+08
  +6.20000000000000000000e+08
  +6.30000000000000000000e+08
  +6.40000000000000000000e+08
  +6.50000000000000000000e+08
  +6.60000000000000000000e+08
  +6.70000000000000000000e+08
  +6.80000000000000000000e+08
  +6.90000000000000000000e+08
  +7.00000000000000000000e+08
  +7.10000000000000000000e+08
  +7.20000000000000000000e+08
  +7.30000000000000000000e+08
  +7.40000000000000000000e+08
  +7.50000000000000000000e+08
  +7.60000000000000000000e+08
  +7.70000000000000000000e+08
  +7.80000000000000000000e+08
  +7.90000000000000000000e+08
  +8.00000000000000000000e+08
  +8.10000000000000000000e+08
  +8.20000000000000000000e+08
  +8.30000000000000000000e+08
  +8.40000000000000000000e+08
  +8.50000000000000000000e+08
  +8.60000000000000000000e+08
  +8.70000000000000000000e+08
  +8.80000000000000000000e+08
  +8.90000000000000000000e+08
  +9.00000000000000000000e+08
  +9.10000000000000000000e+08
  +9.20000000000000000000e+08
  +9.30000000000000000000e+08
  +9.40000000000000000000e+08
  +9.50000000000000000000e+08
  +9.60000000000000000000e+08
  +9.70000000000000000000e+08
  +9.80000000000000000000e+08
  +9.90000000000000000000e+08
  +1.00000000000000000000e+09
  +1.01000000000000000000e+09
  +1.02000000000000000000e+09
  +1.03000000000000000000e+09
  +1.04000000000000000000e+09
  +1.05000000000000000000e+09
  +1.06000000000000000000e+09
  +1.07000000000000000000e+09
  +1.08000000000000000000e+09
  +1.09000000000000000000e+09
  +1.10000000000000000000e+09
  +1.11000000000000000000e+09
  +1.12000000000000000000e+09
  +1.13000000000000000000e+09
  +1.14000000000000000000e+09
  +1.15000000000000000000e+09
  +1.16000000000000000000e+09
  +1.17000000000000000000e+09
  +1.18000000000000000000e+09
  +1.19000000000000000000e+09
  +1.20000000000000000000e+09
  +1.21000000000000000000e+09
  +1.22000000000000000000e+09
  +1.23000000000000000000e+09
  +1.24000000000000000000e+09
  +1.25000000000000000000e+09
  +1.26000000000000000000e+09
  +1.27000000000000000000e+09
  +1.28000000000000000000e+09
  +1.29000000000000000000e+09
  +1.30000000000000000000e+09
  +1.31000000000000000000e+09
  +1.32000000000000000000e+09
  +1.33000000000000000000e+09
  +1.34000000000000000000e+09
  +1.35000000000000000000e+09
  +1.36000000000000000000e+09
  +1.37000000000000000000e+09
  +1.38000000000000000000e+09
  +1.39000000000000000000e+09
  +1.40000000000000000000e+09
  +1.41000000000000000000e+09
  +1.42000000000000000000e+09
  +1.43000000000000000000e+09
  +1.44000000000000000000e+09
  +1.45000000000000000000e+09
  +1.46000000000000000000e+09
  +1.47000000000000000000e+09
  +1.48000000000000000000e+09
  +1.49000000000000000000e+09
  +1.50000000000000000000e+09
</indep>
<dep dBS12 frequency>
  -5.06565918935893861885e+01
  -4.72452588686568191179e+01
  -4.43432141965304396081e+01
  -4.16740793764756176643e+01
  -3.93318661637533608655e+01
  -3.72121921176417131960e+01
  -3.54968172851849033123e+01
  -3.39927211446755350721e+01
  -3.29006235965169651081e+01
  -3.19760182102010830363e+01
  -3.12407538813603835592e+01
  -3.07155693924535313499e+01
  -3.02929738655291913574e+01
  -2.98613236715834808876e+01
  -2.95717121858620757280e+01
  -2.92373971629147924034e+01
  -2.89750978396369873735e+01
  -2.88413865899190788866e+01
  -2.85094977374391866931e+01
  -2.83480165936487722433e+01
  -2.81819300636433887064e+01
  -2.80425889348773722531e+01
  -2.77777763662124925759e+01
  -2.76364845417168325525e+01
  -2.74608673891020984570e+01
  -2.72976630387576832959e+01
  -2.71747578868670629504e+01
  -2.70254213149134834282e+01
  -2.68357836575203911877e+01
  -2.67593885958165778050e+01
  -2.66034020977657164053e+01
  -2.64702680783690809108e+01
  -2.63876060519767605683e+01
  -2.62563786410997721532e+01
  -2.61565582763119728327e+01
  -2.60181371223814004168e+01
  -2.58541027677951973374e+01
  -2.57922800876178861529e+01
  -2.56928305994452657046e+01
  -2.55611910953378860256e+01
  -2.54939818056061398011e+01
  -2.53562267166716068800e+01
  -2.52718899625266004705e+01
  -2.51354595984565811762e+01
  -2.50920190564105283215e+01
  -2.49776728258366986779e+01
  -2.48637633994568858498e+01
  -2.47725687469931443729e+01
  -2.46630234900578706458e+01
  -2.45334292842454750883e+01
  -2.45160684503980697002e+01
  -2.43789381345870026507e+01
  -2.43131099389620928264e+01
  -2.42477237853108498200e+01
  -2.41126173420625988797e+01
  -2.40286358539060174166e+01
  -2.39826538247351592759e+01
  -2.38997360870648947184e+01
  -2.37955738905799130123e+01
  -2.36918143531464338025e+01
  -2.36501950232574564836e+01
  -2.35888099644210136319e+01
  -2.35073842507167221072e+01
  -2.34379132694796723513e+01
  -2.33771207141747439096e+01
  -2.32573792718783423084e+01
  -2.32080833780212394402e+01
  -2.31193392495215341853e+01
  -2.30299392346023665823e+01
  -2.29514092349986285058e+01
  -2.29539580982837563283e+01
  -2.28253562304310229081e+01
  -2.27573611623043348118e+01
  -2.26903367257707664351e+01
  -2.26527707528438853046e+01
  -2.25765422472948706911e+01
  -2.25196740195903970516e+01
  -2.24325425605246877581e+01
  -2.23668014860438120195e+01
  -2.23206561048386973312e+01
  -2.22544142361443029188e+01
  -2.21888646558584454738e+01
  -2.21127520520085596445e+01
  -2.20569853908482684801e+01
  -2.19912054130472753855e+01
  -2.19255354599940517346e+01
  -2.18696708017192911200e+01
  -2.18045509978903027104e+01
  -2.17386013878889450268e+01
  -2.17027833405308143710e+01
  -2.16466396041215745072e+01
  -2.15512667125248391642e+01
  -2.15058374248047066146e+01
  -2.14706775394007607360e+01
  -2.14157581739998228443e+01
  -2.13400697629199171956e+01
  -2.12945161134831586480e+01
  -2.12497906040394397564e+01
  -2.11430622364966289695e+01
  -2.11080839708958905021e+01
  -2.10613363322311286652e+01
  -2.10347793323426941470e+01
  -2.09488484364149485373e+01
  -2.09126678809896127120e+01
  -2.08366089279308823734e+01
  -2.07704362603083723116e+01
  -2.07346687241014535630e+01
  -2.06785874238897875443e+01
  -2.06422088583882512580e+01
  -2.05659393507005852086e+01
  -2.05199295598857318623e+01
  -2.04828641013042869190e+01
  -2.04258234570564631838e+01
  -2.03879755688119317369e+01
  -2.03012139484400577771e+01
  -2.02738832091473284436e+01
  -2.02570990375972037612e+01
  -2.01799539446857920666e+01
  -2.01041320563713377112e+01
  -2.00862850738387521687e+01
  -2.00491033896294439387e+01
  -1.99528887692904035589e+01
  -1.99150959566179110993e+01
  -1.98886183280923454220e+01
  -1.98410580126442717130e+01
  -1.97930994031899203378e+01
  -1.97453668341897277116e+01
  -1.96770404812847630183e+01
  -1.96294112942727174698e+01
  -1.95624423948350454339e+01
  -1.95464279675614811538e+01
  -1.94989061506271497137e+01
  -1.94510013928447236253e+01
  -1.93936167263024188401e+01
  -1.93775680128919916001e+01
  -1.93197216892630372342e+01
  -1.92826265269196142071e+01
  -1.92452102263157414086e+01
  -1.91579672731357000259e+01
  -1.91403080310383053586e+01
  -1.91034356108718377243e+01
</dep>
<dep dBS21 frequency>
  +4.58340810641060780739e+00
  +7.39474113134317523333e+00
  +9.95678580346956820790e+00
  +1.22359206235243789251e+01
  +1.42981338362466452452e+01
  +1.60578078823582863777e+01
  +1.75131827148150946982e+01
  +1.86772788553244666332e+01
  +1.95193764034830365972e+01
  +2.01439817897989179585e+01
  +2.05992461186396198514e+01
  +2.09044306075464731975e+01
  +2.11070261344708107742e+01
  +2.12386763284165169807e+01
  +2.13282878141379228509e+01
  +2.13826028370852085914e+01
  +2.13949021603630065158e+01
  +2.13886134100809286451e+01
  +2.14105022625608079068e+01
  +2.14119834063512328726e+01
  +2.14080699363566182569e+01
  +2.13874110651226310154e+01
  +2.13622236337875008871e+01
  +2.13435154582831643211e+01
  +2.13091326108979082221e+01
  +2.12723369612423205410e+01
  +2.12352421131329336390e+01
  +2.11845786850865245299e+01
  +2.11342163424796112281e+01
  +2.10806114041834220529e+01
  +2.10465979022342892790e+01
  +2.09797319216309183787e+01
  +2.09323939480232326105e+01
  +2.08836213589002284152e+01
  +2.08234417236880346991e+01
  +2.07618628776185971674e+01
  +2.07058972322047978309e+01
  +2.06477199123821080207e+01
  +2.05871694005547283268e+01
  +2.05188089046621158218e+01
  +2.04560181943938523830e+01
  +2.04037732833283982359e+01
  +2.03281100374734009506e+01
  +2.02645404015434138500e+01
  +2.01879809435894657099e+01
  +2.01323271741633078591e+01
  +2.00562366005431158555e+01
  +1.99974312530068623062e+01
  +1.99269765099421292120e+01
  +1.98465707157545203643e+01
  +1.97839315496019310103e+01
  +1.97110618654129936544e+01
  +1.96368900610379100158e+01
  +1.95622762146891489010e+01
  +1.94873826579373989887e+01
  +1.94213641460939818728e+01
  +1.93473461752648425716e+01
  +1.92802639129351049974e+01
  +1.92044261094200905404e+01
  +1.91381856468535644922e+01
  +1.90698049767425459322e+01
  +1.89911900355789811101e+01
  +1.89226157492832811613e+01
  +1.88420867305203252329e+01
  +1.87628792858252566589e+01
  +1.87026207281216620970e+01
  +1.86219166219787588545e+01
  +1.85506607504784675200e+01
  +1.84700607653976369704e+01
  +1.84085907650013744785e+01
  +1.83260419017162483613e+01
  +1.82546437695689753866e+01
  +1.81826388376956629145e+01
  +1.81096632742292378282e+01
  +1.80472292471561104321e+01
  +1.79634577527051284562e+01
  +1.79003259804095975483e+01
  +1.78274574394753102524e+01
  +1.77531985139561854226e+01
  +1.76793438951613097743e+01
  +1.76155857638556980760e+01
  +1.75411353441415549526e+01
  +1.74772479479914402134e+01
  +1.74030146091517252671e+01
  +1.73387945869527300147e+01
  +1.72644645400059495444e+01
  +1.71903291982807147065e+01
  +1.71354490021096985686e+01
  +1.70613986121110556837e+01
  +1.69972166594691920238e+01
  +1.69233603958784293297e+01
  +1.68587332874751609779e+01
  +1.67941625751952905432e+01
  +1.67293224605992421061e+01
  +1.66642418260001718977e+01
  +1.65999302370800840833e+01
  +1.65254838865168416362e+01
  +1.64602093959605646489e+01
  +1.64069377635033717411e+01
  +1.63419160291041087874e+01
  +1.62786636677688747454e+01
  +1.62152206676573129585e+01
  +1.61511515635850528838e+01
  +1.60873321190103908407e+01
  +1.60233910720691170582e+01
  +1.59595637396916316675e+01
  +1.59153312758985485686e+01
  +1.58414125761102120293e+01
  +1.57777911416117433419e+01
  +1.57240606492994157151e+01
  +1.56600704401142731825e+01
  +1.56071358986957093862e+01
  +1.55441765429435356793e+01
  +1.54820244311880585997e+01
  +1.54287860515599373201e+01
  +1.53761167908526736881e+01
  +1.53229009624027963099e+01
  +1.52600460553142092124e+01
  +1.52058679436286574571e+01
  +1.51537149261612533735e+01
  +1.50908966103705566297e+01
  +1.50371112307095966543e+01
  +1.49849040433820910323e+01
  +1.49213816719076497463e+01
  +1.48689419873557309160e+01
  +1.48169005968100737647e+01
  +1.47646331658102791806e+01
  +1.47129595187152375502e+01
  +1.46605887057272799012e+01
  +1.46075576051649562714e+01
  +1.45535720324385167146e+01
  +1.45110938493728518495e+01
  +1.44489986071552678482e+01
  +1.44063832736975783178e+01
  +1.43524319871080088262e+01
  +1.43002783107369602078e+01
  +1.42473734730803833770e+01
  +1.41947897736842580940e+01
  +1.41420327268642953555e+01
  +1.40896919689616932914e+01
  +1.40465643891281626310e+01
</dep>
<dep dBS22 frequency>
  -8.49232907827945382451e+00
  -7.36170941240541409911e+00
  -6.44491181518418265739e+00
  -5.72012320583053579526e+00
  -5.11656315007022755026e+00
  -4.70427178482805974369e+00
  -4.52618668892307773888e+00
  -4.55064612708306537314e+00
  -4.80424785094964423848e+00
  -5.21112480485711415668e+00
  -5.70410707211500334068e+00
  -6.28848931497605256880e+00
  -6.92460744441205910960e+00
  -7.58215782000715599054e+00
  -8.26132742310720402656e+00
  -8.82156841000695912669e+00
  -9.55709925225233547508e+00
  -1.00386462596587264784e+01
  -1.04045143005346254483e+01
  -1.09723180229997847590e+01
  -1.14187990353128814291e+01
  -1.18895189260835554279e+01
  -1.23034794090348054141e+01
  -1.27712929316471974772e+01
  -1.30746596872444360571e+01
  -1.34672559180970292658e+01
  -1.38305913667915731935e+01
  -1.41643338769758404538e+01
  -1.45243846609384696933e+01
  -1.48544208817412268786e+01
  -1.52368428887263736016e+01
  -1.54631912065535548351e+01
  -1.59143584645596014582e+01
  -1.62159773925420509499e+01
  -1.66770328213574217102e+01
  -1.69717991431527330803e+01
  -1.72528051210199748766e+01
  -1.75919266425947107280e+01
  -1.79347723019110638631e+01
  -1.82255718954899279538e+01
  -1.86226403039302894626e+01
  -1.90556142355363355989e+01
  -1.94410398221077400649e+01
  -1.96449707413597423056e+01
  -2.03435560943571971393e+01
  -2.08031329290486866057e+01
  -2.12448943836056045598e+01
  -2.16219635352119645688e+01
  -2.20838483130964711165e+01
  -2.27466211885071665222e+01
  -2.33731591665431182037e+01
  -2.38641077194806001671e+01
  -2.47373748671422113432e+01
  -2.52037454078373883704e+01
  -2.59870489141348741668e+01
  -2.66827442295128811622e+01
  -2.75749985456001986961e+01
  -2.86903248815847824460e+01
  -2.98710653639831349437e+01
  -3.12295502618392646355e+01
  -3.23010016015122189970e+01
  -3.42092801699960276096e+01
  -3.57389187800431145092e+01
  -3.72722221058130855909e+01
  -4.05524825043158827498e+01
  -4.42820663051249567843e+01
  -4.51423626415317897909e+01
  -4.31265593941266587308e+01
  -3.97830645818953740900e+01
  -3.73867661864218376877e+01
  -3.47390038075827476405e+01
  -3.38854887580950219217e+01
  -3.24355371857703431715e+01
  -3.13407712492541605798e+01
  -3.01833292171372882251e+01
  -2.92143040595167704510e+01
  -2.84851291297748261400e+01
  -2.78145004499919501484e+01
  -2.71242740181515387121e+01
  -2.65167579679995490949e+01
  -2.60390705464049467821e+01
  -2.56282029517739040614e+01
  -2.50404624826133037629e+01
  -2.46295876807784033247e+01
  -2.42373450568446280329e+01
  -2.38928837859318576875e+01
  -2.34512133416407024811e+01
  -2.32559613985773268041e+01
  -2.29278277509794783384e+01
  -2.26886334778684073399e+01
  -2.24860320555086943273e+01
  -2.22267312636070073495e+01
  -2.20022348177330329122e+01
  -2.17484985018867362783e+01
  -2.14987371425306150741e+01
  -2.13469082756515682320e+01
  -2.11640714726941290280e+01
  -2.09225659095422287237e+01
  -2.08485736081188441915e+01
  -2.06223418651714531791e+01
  -2.05392856926075886292e+01
  -2.04765147448200295344e+01
  -2.03260031116905821591e+01
  -2.02094135453191086071e+01
  -2.00684437063552252312e+01
  -1.99694497118810865288e+01
  -1.98106416548945176714e+01
  -1.97079904171199906671e+01
  -1.96289697507964682188e+01
  -1.95378404532139526850e+01
  -1.94239333730483174634e+01
  -1.93742772874557012130e+01
  -1.92977118757265273530e+01
  -1.92831690887186582017e+01
  -1.91907081337630458506e+01
  -1.91176629077407831403e+01
  -1.89794725184011703334e+01
  -1.89253282834862552875e+01
  -1.87203405506475171194e+01
  -1.86881581045581839362e+01
  -1.86225413594050763777e+01
  -1.84674012107848248831e+01
  -1.84303052039367472048e+01
  -1.82974804180855166180e+01
  -1.82267142846712673077e+01
  -1.81712340583434368568e+01
  -1.80899938380898142043e+01
  -1.80341347452042164434e+01
  -1.79365787060709962475e+01
  -1.77696920491586283219e+01
  -1.75682586471016506380e+01
  -1.74582451480087570417e+01
  -1.73493198658808580603e+01
  -1.72336514013502686282e+01
  -1.70514934048322928106e+01
  -1.69544541161429016540e+01
  -1.68261338986269102236e+01
  -1.67026742577491447150e+01
  -1.65709292320893730732e+01
  -1.64668660552281878040e+01
  -1.62956878133652907081e+01
</dep>
<dep K frequency>
  +7.04153860481068605282e+00
  +4.08278494974083194791e+00
  +2.73591826629886991640e+00
  +2.04973991600670490953e+00
  +1.68513457013620104874e+00
  +1.47777825806949092424e+00
  +1.36527942166138838154e+00
  +1.28998665635727038925e+00
  +1.25418878640203224073e+00
  +1.22608990606056122985e+00
  +1.20563102243794428858e+00
  +1.19574299778280224160e+00
  +1.18976019924502551817e+00
  +1.18060733204439238797e+00
  +1.17908792077448310032e+00
  +1.17255875624156824522e+00
  +1.17046261604840706738e+00
  +1.17469107173147424561e+00
  +1.16435212331410919973e+00
  +1.16609846034063324716e+00
  +1.16619914866796170472e+00
  +1.16782993501259357849e+00
  +1.16162512623765334929e+00
  +1.16208419199991785931e+00
  +1.16065566560266097973e+00
  +1.15901862252325282832e+00
  +1.15988327577832839310e+00
  +1.15922368550688226208e+00
  +1.15564975277397685716e+00
  +1.15916566994088832132e+00
  +1.15603253271466033247e+00
  +1.15620360107932840243e+00
  +1.15819836540275700187e+00
  +1.15682247802538551440e+00
  +1.15801820790019416307e+00
  +1.15646977139144069291e+00
  +1.15225991987398646010e+00
  +1.15478263521096624622e+00
  +1.15465797250989710143e+00
  +1.15301530478697733528e+00
  +1.15484847927497025211e+00
  +1.15133873640246320313e+00
  +1.15245844233010563684e+00
  +1.14939496189664036585e+00
  +1.15317134270051480094e+00
  +1.15081164882622566381e+00
  +1.14965505599409367754e+00
  +1.14862175771799845947e+00
  +1.14704189045459203911e+00
  +1.14482928870907918473e+00
  +1.14847736363964303408e+00
  +1.14495551637400461154e+00
  +1.14610249738178127110e+00
  +1.14708850343543522499e+00
  +1.14363067185922751001e+00
  +1.14276015250271445467e+00
  +1.14480623875267517597e+00
  +1.14398688991339980703e+00
  +1.14226652037024667408e+00
  +1.13992126949506578093e+00
  +1.14152980432378092779e+00
  +1.14255146634985527143e+00
  +1.14154009892028529549e+00
  +1.14205915674559288497e+00
  +1.14299120844778778761e+00
  +1.13891261866278714621e+00
  +1.14057473642002649150e+00
  +1.13907890753442231357e+00
  +1.13810865832668128839e+00
  +1.13652297392294387990e+00
  +1.14145561540619300267e+00
  +1.13723674494633097964e+00
  +1.13689143993183461312e+00
  +1.13672429265110030983e+00
  +1.13761180283435181515e+00
  +1.13761060056317453437e+00
  +1.13734842182838491453e+00
  +1.13571971628360279816e+00
  +1.13564127342776965968e+00
  +1.13671582281220473476e+00
  +1.13584321526621900844e+00
  +1.13575809982192588166e+00
  +1.13404647096716981736e+00
  +1.13450724705232408596e+00
  +1.13365374263922280562e+00
  +1.13332721886034182290e+00
  +1.13368466656064992293e+00
  +1.13238824596153797586e+00
  +1.13210122975830373981e+00
  +1.13309936997795390745e+00
  +1.13337208712018799872e+00
  +1.13076750645594015232e+00
  +1.13145886198896827857e+00
  +1.13242414811697900134e+00
  +1.13229387548424598187e+00
  +1.13075459041863513043e+00
  +1.13192659803020667653e+00
