<Qucs Dataset 1.0.5>
<indep frequency 141>
  +1.00000000000000000000e+08
  +1.10000000000000000000e+08
  +1.20000000000000000000e+08
  +1.30000000000000000000e+08
  +1.40000000000000000000e+08
  +1.50000000000000000000e+08
  +1.60000000000000000000e+08
  +1.70000000000000000000e+08
  +1.80000000000000000000e+08
  +1.90000000000000000000e+08
  +2.00000000000000000000e+08
  +2.10000000000000000000e+08
  +2.20000000000000000000e+08
  +2.30000000000000000000e+08
  +2.40000000000000000000e+08
  +2.50000000000000000000e+08
  +2.60000000000000000000e+08
  +2.70000000000000000000e+08
  +2.80000000000000000000e+08
  +2.90000000000000000000e+08
  +3.00000000000000000000e+08
  +3.10000000000000000000e+08
  +3.20000000000000000000e+08
  +3.30000000000000000000e+08
  +3.40000000000000000000e+08
  +3.50000000000000000000e+08
  +3.60000000000000000000e+08
  +3.70000000000000000000e+08
  +3.80000000000000000000e+08
  +3.90000000000000000000e+08
  +4.00000000000000000000e+08
  +4.10000000000000000000e+08
  +4.20000000000000000000e+08
  +4.30000000000000000000e+08
  +4.40000000000000000000e+08
  +4.50000000000000000000e+08
  +4.60000000000000000000e+08
  +4.70000000000000000000e+08
  +4.80000000000000000000e+08
  +4.90000000000000000000e+08
  +5.00000000000000000000e+08
  +5.10000000000000000000e+08
  +5.20000000000000000000e+08
  +5.30000000000000000000e+08
  +5.40000000000000000000e+08
  +5.50000000000000000000e+08
  +5.60000000000000000000e+08
  +5.70000000000000000000e+08
  +5.80000000000000000000e+08
  +5.90000000000000000000e+08
  +6.00000000000000000000e+08
  +6.10000000000000000000e+08
  +6.20000000000000000000e+08
  +6.30000000000000000000e+08
  +6.40000000000000000000e+08
  +6.50000000000000000000e+08
  +6.60000000000000000000e+08
  +6.70000000000000000000e+08
  +6.80000000000000000000e+08
  +6.90000000000000000000e+08
  +7.00000000000000000000e+08
  +7.10000000000000000000e+08
  +7.20000000000000000000e+08
  +7.30000000000000000000e+08
  +7.40000000000000000000e+08
  +7.50000000000000000000e+08
  +7.60000000000000000000e+08
  +7.70000000000000000000e+08
  +7.80000000000000000000e+08
  +7.90000000000000000000e+08
  +8.00000000000000000000e+08
  +8.10000000000000000000e+08
  +8.20000000000000000000e+08
  +8.30000000000000000000e+08
  +8.40000000000000000000e+08
  +8.50000000000000000000e+08
  +8.60000000000000000000e+08
  +8.70000000000000000000e+08
  +8.80000000000000000000e+08
  +8.90000000000000000000e+08
  +9.00000000000000000000e+08
  +9.10000000000000000000e+08
  +9.20000000000000000000e+08
  +9.30000000000000000000e+08
  +9.40000000000000000000e+08
  +9.50000000000000000000e+08
  +9.60000000000000000000e+08
  +9.70000000000000000000e+08
  +9.80000000000000000000e+08
  +9.90000000000000000000e+08
  +1.00000000000000000000e+09
  +1.01000000000000000000e+09
  +1.02000000000000000000e+09
  +1.03000000000000000000e+09
  +1.04000000000000000000e+09
  +1.05000000000000000000e+09
  +1.06000000000000000000e+09
  +1.07000000000000000000e+09
  +1.08000000000000000000e+09
  +1.09000000000000000000e+09
  +1.10000000000000000000e+09
  +1.11000000000000000000e+09
  +1.12000000000000000000e+09
  +1.13000000000000000000e+09
  +1.14000000000000000000e+09
  +1.15000000000000000000e+09
  +1.16000000000000000000e+09
  +1.17000000000000000000e+09
  +1.18000000000000000000e+09
  +1.19000000000000000000e+09
  +1.20000000000000000000e+09
  +1.21000000000000000000e+09
  +1.22000000000000000000e+09
  +1.23000000000000000000e+09
  +1.24000000000000000000e+09
  +1.25000000000000000000e+09
  +1.26000000000000000000e+09
  +1.27000000000000000000e+09
  +1.28000000000000000000e+09
  +1.29000000000000000000e+09
  +1.30000000000000000000e+09
  +1.31000000000000000000e+09
  +1.32000000000000000000e+09
  +1.33000000000000000000e+09
  +1.34000000000000000000e+09
  +1.35000000000000000000e+09
  +1.36000000000000000000e+09
  +1.37000000000000000000e+09
  +1.38000000000000000000e+09
  +1.39000000000000000000e+09
  +1.40000000000000000000e+09
  +1.41000000000000000000e+09
  +1.42000000000000000000e+09
  +1.43000000000000000000e+09
  +1.44000000000000000000e+09
  +1.45000000000000000000e+09
  +1.46000000000000000000e+09
  +1.47000000000000000000e+09
  +1.48000000000000000000e+09
  +1.49000000000000000000e+09
  +1.50000000000000000000e+09
</indep>
<dep dBS12 frequency>
  -5.52467868109568982504e+01
  -5.38235306447501500315e+01
  -5.28399296093653703110e+01
  -5.19893143411418350297e+01
  -5.13618741602237491861e+01
  -5.07801063058560657737e+01
  -5.03945609065583113306e+01
  -4.99962540228844076751e+01
  -4.97607820771347704181e+01
  -4.95089675248320446599e+01
  -4.92966398228651740965e+01
  -4.91602011292861220682e+01
  -4.90426738719567723024e+01
  -4.88547556075786175711e+01
  -4.87655595043159166835e+01
  -4.86030708825667616679e+01
  -4.84718662157561936965e+01
  -4.84647710814141561286e+01
  -4.82540859478836736685e+01
  -4.81886423297757815476e+01
  -4.81067699328388442837e+01
  -4.80357902486243517615e+01
  -4.78497901453924256998e+01
  -4.77522930492399666491e+01
  -4.76299694412616858585e+01
  -4.75036518517520462979e+01
  -4.73998048969494334415e+01
  -4.72730870097266802077e+01
  -4.71003190108659168800e+01
  -4.70328576404694445046e+01
  -4.68846073204080653340e+01
  -4.67479921635446089567e+01
  -4.66609004297447711451e+01
  -4.65254999637233694898e+01
  -4.64155586643131243818e+01
  -4.62655001113879293939e+01
  -4.60924698569480639776e+01
  -4.60075805000102917575e+01
  -4.58844291814595663936e+01
  -4.57231545343458805064e+01
  -4.56286818348239506804e+01
  -4.54624170946941958960e+01
  -4.53457061240400420843e+01
  -4.51782659158726715987e+01
  -4.50989742610049333393e+01
  -4.49506459182531870056e+01
  -4.48102451723732428945e+01
  -4.46785672743946662422e+01
  -4.45288080356786437619e+01
  -4.43658464821362485964e+01
  -4.43132321667803381615e+01
  -4.41330687907883145726e+01
  -4.40319928021005182472e+01
  -4.39295457191199147928e+01
  -4.37502437616403128118e+01
  -4.36285147588407227204e+01
  -4.35533910966396717868e+01
  -4.34360702446701338886e+01
  -4.33010657818829614030e+01
  -4.31679557545855345779e+01
  -4.30950736359066297609e+01
  -4.30048041117036632386e+01
  -4.28959093481089936972e+01
  -4.27983257812678914433e+01
  -4.27185001605522813861e+01
  -4.25713766433861451333e+01
  -4.25023379765926847540e+01
  -4.23919983165734066688e+01
  -4.22914261952306631542e+01
  -4.21950181380955129384e+01
  -4.21916703421107186500e+01
  -4.20443287366552453932e+01
  -4.19700780608932788596e+01
  -4.18969785626913022725e+01
  -4.18590585979008551476e+01
  -4.17824603449715397119e+01
  -4.17273112579382541298e+01
  -4.16428311710397025536e+01
  -4.15802946004242528488e+01
  -4.15423319158545467644e+01
  -4.14873609950457407081e+01
  -4.14271964917595738598e+01
  -4.13661580875264149881e+01
  -4.13251617354476152855e+01
  -4.12796825117318917364e+01
  -4.12278443980981279537e+01
  -4.11988653225298477878e+01
  -4.11457160387275990843e+01
  -4.11117310731886931308e+01
  -4.10995430601204247978e+01
  -4.10699650086960446060e+01
  -4.10022360875140918779e+01
  -4.09869748109041864836e+01
  -4.09808156515594532721e+01
  -4.09563488231188586042e+01
  -4.09073853506659830259e+01
  -4.08942985512327652486e+01
  -4.08801322208533051139e+01
  -4.08019862407635329760e+01
  -4.08011026686218798432e+01
  -4.07933435329419324944e+01
  -4.08016959501910605468e+01
  -4.07481597894941813820e+01
  -4.07488058740903724697e+01
  -4.07118854320476515340e+01
  -4.06773489601933846416e+01
  -4.06771194086742227114e+01
  -4.06540704073025978005e+01
  -4.06489819712753615022e+01
  -4.06016006693277944350e+01
  -4.05870948026555993238e+01
  -4.05778702896540082179e+01
  -4.05550857877809391994e+01
  -4.05504454322850520498e+01
  -4.04940786534234433702e+01
  -4.04975016936317189220e+01
  -4.05165739796138169027e+01
  -4.04653720543229269424e+01
  -4.04218253253728647678e+01
  -4.04283034904607347926e+01
  -4.04105756338693566931e+01
  -4.03392847751019587577e+01
  -4.03182560583203297710e+01
  -4.03055954387470052325e+01
  -4.02773937956493170987e+01
  -4.02489858901567600924e+01
  -4.02199847827382797050e+01
  -4.01733499769041628724e+01
  -4.01426887702155141824e+01
  -4.00981055176460330358e+01
  -4.00906202412732497464e+01
  -4.00557589121610959637e+01
  -4.00180496695373904004e+01
  -3.99685904151424580277e+01
  -3.99506106746208118352e+01
  -3.98971350138140294916e+01
  -3.98563264315933878379e+01
  -3.98229583637997421874e+01
  -3.97396663028391259331e+01
  -3.97172309774188505571e+01
  -3.96856529876476713525e+01
</dep>
<dep dBS21 frequency>
  -6.78681095690035311729e-03
  +8.16469355249854200629e-01
  +1.46007039063463350814e+00
  +1.92068565885816555650e+00
  +2.26812583977624981912e+00
  +2.48989369414393557634e+00
  +2.61543909344169200892e+00
  +2.67374597711558870117e+00
  +2.65921792286522951088e+00
  +2.61103247516795144989e+00
  +2.54336017713482487324e+00
  +2.45979887071388336750e+00
  +2.35732612804322805289e+00
  +2.24524439242138118544e+00
  +2.13444049568407745454e+00
  +2.01692911743324643226e+00
  +1.89813378424380330145e+00
  +1.76522891858583697022e+00
  +1.66591405211632603844e+00
  +1.57135767022422023764e+00
  +1.48323006716116068127e+00
  +1.39420975137564906454e+00
  +1.29020985460757686702e+00
  +1.22770695076003844015e+00
  +1.14003055873831504741e+00
  +1.06634814824795620680e+00
  +1.01019510305056758881e+00
  +9.36912990273317980439e-01
  +8.69680989134079429626e-01
  +8.07142359530560571379e-01
  +7.65392679591938018824e-01
  +7.02007836455394884645e-01
  +6.59099570255223699000e-01
  +6.14500036276632077836e-01
  +5.64441335686880374389e-01
  +5.14499888612074185446e-01
  +4.67530143051933633203e-01
  +4.32419499989706745957e-01
  +3.95570818540437796340e-01
  +3.56845465654117621757e-01
  +3.21318165176046943721e-01
  +2.97582905305807554619e-01
  +2.54293875959955562038e-01
  +2.21734084127326647184e-01
  +1.81025738995067853043e-01
  +1.59354081746818615484e-01
  +1.09754827626754786207e-01
  +9.14327256053444892281e-02
  +6.11919643213554576011e-02
  +1.41535178637453816497e-02
  -1.32321667803328192614e-02
  -4.30687907883145759680e-02
  -8.19928021005136842270e-02
  -1.19545719119913074202e-01
  -1.50243761640317136097e-01
  -1.78514758840728732237e-01
  -2.23391096639672076529e-01
  -2.56070244670136282217e-01
  -3.01065781882958849458e-01
  -3.37955754585538725721e-01
  -3.75073635906633007231e-01
  -4.24804111703672659939e-01
  -4.65909348108995147175e-01
  -5.18325781267883312076e-01
  -5.78500160552278708259e-01
  -6.11376643386141838121e-01
  -6.72337976592680908183e-01
  -7.21998316573408294161e-01
  -7.91426195230660489699e-01
  -8.35018138095507955754e-01
  -9.11670342110723286311e-01
  -9.64328736655247542586e-01
  -1.03007806089328113330e+00
  -1.09697856269130245011e+00
  -1.15905859790085519201e+00
  -1.24246034497154522747e+00
  -1.30731125793825864179e+00
  -1.38283117103970276673e+00
  -1.46029460042425318633e+00
  -1.54233191585454698647e+00
  -1.61736099504574104557e+00
  -1.69719649175956766030e+00
  -1.77615808752642134749e+00
  -1.86516173544761354464e+00
  -1.94968251173188633629e+00
  -2.03784439809812667477e+00
  -2.13886532252984240543e+00
  -2.20571603872759247622e+00
  -2.31173107318868797933e+00
  -2.39954306012042017926e+00
  -2.49996500869603810457e+00
  -2.59223608751409440032e+00
  -2.68697481090418532901e+00
  -2.78081565155945842349e+00
  -2.87634882311887052353e+00
  -2.96738535066598441148e+00
  -3.07429855123276674078e+00
  -3.17013222085330292899e+00
  -3.25198624076353492995e+00
  -3.35110266862187344827e+00
  -3.45334353294193308059e+00
  -3.55169595019105210909e+00
  -3.64815978949419195132e+00
  -3.74880587409036980517e+00
  -3.85188543204764943795e+00
  -3.94734896019338687978e+00
  -4.02711940867422502066e+00
  -4.13407040730258934502e+00
  -4.22898197127536601414e+00
  -4.31160066932778907045e+00
  -4.40709480265559427892e+00
  -4.48787028965401368907e+00
  -4.58508578778093678352e+00
  -4.68044543228505194321e+00
  -4.76407865342343761483e+00
  -4.84750169363171856673e+00
  -4.93657397961381150253e+00
  -5.02537205432291855800e+00
  -5.11182532537287048768e+00
  -5.18830349046073457941e+00
  -5.27057563386935434835e+00
  -5.34928477510196564992e+00
  -5.41825605832033208031e+00
  -5.49559543874700295873e+00
  -5.56739379564931446964e+00
  -5.63898589015676243719e+00
  -5.70998478273827636542e+00
  -5.78334997690416408034e+00
  -5.85268877021551947593e+00
  -5.92810551764604198866e+00
  -5.99062024127325187806e+00
  -6.04575891216108907145e+00
  -6.11804966953739359781e+00
  -6.16859041514245998172e+00
  -6.22061067462081673796e+00
  -6.27713501381402849688e+00
  -6.32632643159338403649e+00
  -6.38295836379974357300e+00
  -6.43966630283912166988e+00
  -6.48723097741884835443e+00
  -6.53565298764767010908e+00
</dep>
<dep dBS22 frequency>
  -1.84510098952721968146e+01
  -1.83701014346142734723e+01
  -1.81034952636290427108e+01
  -1.76977073717253254870e+01
  -1.72444846442395487429e+01
  -1.67978921786260642079e+01
  -1.63956659662861206073e+01
  -1.60374933813782476477e+01
  -1.57510780506036436321e+01
  -1.55063518631146823878e+01
  -1.53030577717334672627e+01
  -1.51490454893125754410e+01
  -1.50247990072513211146e+01
  -1.49227429640021966861e+01
  -1.48506639132208189125e+01
  -1.47898140397226818266e+01
  -1.47465936243983346543e+01
  -1.47053856220508016861e+01
  -1.46751653681993445844e+01
  -1.46695367644672280960e+01
  -1.46652164429612934526e+01
  -1.46658566740708078413e+01
  -1.46665457566557364544e+01
  -1.46892291535809746961e+01
  -1.47008232992159335595e+01
  -1.47212355986229965765e+01
  -1.47530684102292006799e+01
  -1.47822370399909068794e+01
  -1.48131231884242904329e+01
  -1.48483118391843955663e+01
  -1.48833642811772790537e+01
  -1.49271825611761244090e+01
  -1.49747895291037167453e+01
  -1.50215206654627841942e+01
  -1.50686242797968983353e+01
  -1.51207103516846075308e+01
  -1.51635723781948286160e+01
  -1.52232321006981230482e+01
  -1.52807242883423892721e+01
  -1.53454781594494136243e+01
  -1.54061519481111712793e+01
  -1.54675975361682755960e+01
  -1.55365165895007457664e+01
  -1.55963105984514509572e+01
  -1.56665954380718552841e+01
  -1.57376518993164751237e+01
  -1.57984390354917820787e+01
  -1.58772043476716344657e+01
  -1.59526043402756698697e+01
  -1.60215971297664268036e+01
  -1.60951106293841235129e+01
  -1.61771748344959362953e+01
  -1.62474950106673006189e+01
  -1.63182595393387366300e+01
  -1.64002524463302137292e+01
  -1.64687983801863033761e+01
  -1.65388263134730877368e+01
  -1.66043165005097534959e+01
  -1.66599883032173607944e+01
  -1.67278253993930761112e+01
  -1.67844912847207936579e+01
  -1.68365809071939906971e+01
  -1.68913535385123410038e+01
  -1.69339757960025849570e+01
  -1.69646560386894478256e+01
  -1.70104130047517685398e+01
  -1.70370921131308676877e+01
  -1.70588614406974734550e+01
  -1.70665301295983660168e+01
  -1.70760698054829269665e+01
  -1.70562075753007853507e+01
  -1.70689797068058410900e+01
  -1.70501063119189986139e+01
  -1.70257660933461565378e+01
  -1.69885106802445129404e+01
  -1.69509505500637871478e+01
  -1.69042577089096752729e+01
  -1.68563961581046797278e+01
  -1.68000674346733021025e+01
  -1.67355046004229848222e+01
  -1.66620071233495536944e+01
  -1.65967806982643111269e+01
  -1.65133916083477636505e+01
  -1.64341229226818406062e+01
  -1.63427006885884722465e+01
  -1.62609352961616480115e+01
  -1.61665362948067041771e+01
  -1.60862091956997232955e+01
  -1.59822071648251569087e+01
  -1.58921238356889293897e+01
  -1.57986653868123276823e+01
  -1.57041437554470046933e+01
  -1.56114200465394059592e+01
  -1.55134488005896322704e+01
  -1.54159017918902723210e+01
  -1.53262779142371297070e+01
  -1.52353521975747785433e+01
  -1.51452348028142260716e+01
  -1.50586598279949299695e+01
  -1.49673666944503800380e+01
  -1.48822894442903130852e+01
  -1.47986816225078285925e+01
  -1.47176060928410468165e+01
  -1.46335097329087595597e+01
  -1.45533210312870213698e+01
  -1.44770134127808063340e+01
  -1.43983706426744788587e+01
  -1.43279106645469624937e+01
  -1.42565119328513816299e+01
  -1.41890579619358554453e+01
  -1.41223527159992663371e+01
  -1.40635181042134576046e+01
  -1.39958763355807409567e+01
  -1.39373359332241939512e+01
  -1.38766953649179107799e+01
  -1.38210670095413199476e+01
  -1.37634946410406193706e+01
  -1.37111507267834475954e+01
  -1.36528902546295487497e+01
  -1.36083871803219942365e+01
  -1.35628397987014750470e+01
  -1.35135063461261530904e+01
  -1.34722658110682012023e+01
  -1.34330160489348067188e+01
  -1.33954528287124148278e+01
  -1.33553424304047716475e+01
  -1.33183439401844836425e+01
  -1.32800516152289578287e+01
  -1.32477546086632997913e+01
  -1.32103448544352666261e+01
  -1.31832736500368561394e+01
  -1.31548254867657536948e+01
  -1.31248736834794783590e+01
  -1.30987850560271184008e+01
  -1.30791350228382086129e+01
  -1.30570339296994184508e+01
  -1.30376899880486281091e+01
  -1.30179628265244335950e+01
  -1.29952775200292869329e+01
  -1.29832308209809497157e+01
  -1.29649818947749846387e+01
</dep>
<dep K frequency>
  +2.74230489793456627012e+02
  +2.12109429567377077319e+02
  +1.76054098031148242853e+02
  +1.51402689025395915223e+02
  +1.35275817585594012371e+02
  +1.23203444148257275970e+02
  +1.16013980991488651284e+02
  +1.09893330838447923270e+02
  +1.06974154243839308265e+02
  +1.04326986713412864560e+02
  +1.02444300264517138999e+02
  +1.01691228648813236646e+02
  +1.01391212427808838470e+02
  +1.00392671211607677151e+02
  +1.00547829089115765555e+02
  +9.99461252827744885963e+01
  +9.97307706379748282188e+01
  +1.01123460322595008165e+02
  +9.97672566833254563790e+01
  +1.00060122934732902422e+02
  +1.00095882428503358597e+02
  +1.00278585262434305037e+02
  +9.92945216743237324408e+01
  +9.88849252185950291505e+01
  +9.84709675038367606703e+01
  +9.78624004691733944128e+01
  +9.73320508555405012885e+01
  +9.67314179595720275984e+01
  +9.55641526478753888796e+01
  +9.55212967536129298196e+01
  +9.43640023225473214552e+01
  +9.35863047624095258925e+01
  +9.31347235812566935920e+01
  +9.21802986728026780838e+01
  +9.15708257950430208894e+01
  +9.05409776451898693495e+01
  +8.92476561937257741874e+01
  +8.87670658453496486118e+01
  +8.79169114459019596097e+01
  +8.67183426767904279586e+01
  +8.61619396205688303780e+01
  +8.47899071477581856016e+01
  +8.41113349127898572988e+01
  +8.28391902953302121659e+01
  +8.25164472541447224785e+01
  +8.13567000720129271940e+01
  +8.05340496605756754889e+01
  +7.95285870333455306991e+01
  +7.84793087190767977290e+01
  +7.74710105163233322401e+01
  +7.72808220659245961315e+01
  +7.59942150118941412984e+01
  +7.54871053071219364483e+01
  +7.49539402589495438178e+01
  +7.37239852424648631768e+01
  +7.29644540848738643035e+01
  +7.27361524350630901381e+01
  +7.20593914945981453002e+01
  +7.13370756648157140489e+01
  +7.05761173484758046470e+01
  +7.03049528118365287810e+01
  +6.99969504463622627100e+01
  +6.94688485410483167470e+01
  +6.91198509050619094296e+01
  +6.89695423271967058554e+01
  +6.80828174652415896162e+01
  +6.80215582065921609001e+01
  +6.75508956381636380684e+01
  +6.73006479258807388533e+01
  +6.68894666451325434764e+01
  +6.74337132934276723972e+01
  +6.66969499326755226321e+01
  +6.66101867704981458473e+01
  +6.65394730726023055922e+01
  +6.66917271213401363639e+01
  +6.67097901117782328129e+01
  +6.67463409204754754001e+01
  +6.66370224685902172723e+01
  +6.67065354414846467535e+01
  +6.69923290794517924951e+01
  +6.70907321182091038736e+01
  +6.71877480045725832269e+01
  +6.72617396806010390264e+01
  +6.75645785536247132086e+01
  +6.77925588650583392791e+01
  +6.80045824213401886027e+01
  +6.84819097741831370740e+01
  +6.85155705476801699660e+01
  +6.89867549703527060956e+01
  +6.94977028450249463276e+01
  +6.99677000974546103862e+01
  +7.00664129166577822616e+01
  +7.06045821921673280031e+01
  +7.12139947690461667662e+01
  +7.16864587281544061170e+01
  +7.19271146847991644790e+01
  +7.25914833635353744512e+01
