<Qucs Dataset 1.0.5>
<indep frequency 141>
  +1.00000000000000000000e+08
  +1.10000000000000000000e+08
  +1.20000000000000000000e+08
  +1.30000000000000000000e+08
  +1.40000000000000000000e+08
  +1.50000000000000000000e+08
  +1.60000000000000000000e+08
  +1.70000000000000000000e+08
  +1.80000000000000000000e+08
  +1.90000000000000000000e+08
  +2.00000000000000000000e+08
  +2.10000000000000000000e+08
  +2.20000000000000000000e+08
  +2.30000000000000000000e+08
  +2.40000000000000000000e+08
  +2.50000000000000000000e+08
  +2.60000000000000000000e+08
  +2.70000000000000000000e+08
  +2.80000000000000000000e+08
  +2.90000000000000000000e+08
  +3.00000000000000000000e+08
  +3.10000000000000000000e+08
  +3.20000000000000000000e+08
  +3.30000000000000000000e+08
  +3.40000000000000000000e+08
  +3.50000000000000000000e+08
  +3.60000000000000000000e+08
  +3.70000000000000000000e+08
  +3.80000000000000000000e+08
  +3.90000000000000000000e+08
  +4.00000000000000000000e+08
  +4.10000000000000000000e+08
  +4.20000000000000000000e+08
  +4.30000000000000000000e+08
  +4.40000000000000000000e+08
  +4.50000000000000000000e+08
  +4.60000000000000000000e+08
  +4.70000000000000000000e+08
  +4.80000000000000000000e+08
  +4.90000000000000000000e+08
  +5.00000000000000000000e+08
  +5.10000000000000000000e+08
  +5.20000000000000000000e+08
  +5.30000000000000000000e+08
  +5.40000000000000000000e+08
  +5.50000000000000000000e+08
  +5.60000000000000000000e+08
  +5.70000000000000000000e+08
  +5.80000000000000000000e+08
  +5.90000000000000000000e+08
  +6.00000000000000000000e+08
  +6.10000000000000000000e+08
  +6.20000000000000000000e+08
  +6.30000000000000000000e+08
  +6.40000000000000000000e+08
  +6.50000000000000000000e+08
  +6.60000000000000000000e+08
  +6.70000000000000000000e+08
  +6.80000000000000000000e+08
  +6.90000000000000000000e+08
  +7.00000000000000000000e+08
  +7.10000000000000000000e+08
  +7.20000000000000000000e+08
  +7.30000000000000000000e+08
  +7.40000000000000000000e+08
  +7.50000000000000000000e+08
  +7.60000000000000000000e+08
  +7.70000000000000000000e+08
  +7.80000000000000000000e+08
  +7.90000000000000000000e+08
  +8.00000000000000000000e+08
  +8.10000000000000000000e+08
  +8.20000000000000000000e+08
  +8.30000000000000000000e+08
  +8.40000000000000000000e+08
  +8.50000000000000000000e+08
  +8.60000000000000000000e+08
  +8.70000000000000000000e+08
  +8.80000000000000000000e+08
  +8.90000000000000000000e+08
  +9.00000000000000000000e+08
  +9.10000000000000000000e+08
  +9.20000000000000000000e+08
  +9.30000000000000000000e+08
  +9.40000000000000000000e+08
  +9.50000000000000000000e+08
  +9.60000000000000000000e+08
  +9.70000000000000000000e+08
  +9.80000000000000000000e+08
  +9.90000000000000000000e+08
  +1.00000000000000000000e+09
  +1.01000000000000000000e+09
  +1.02000000000000000000e+09
  +1.03000000000000000000e+09
  +1.04000000000000000000e+09
  +1.05000000000000000000e+09
  +1.06000000000000000000e+09
  +1.07000000000000000000e+09
  +1.08000000000000000000e+09
  +1.09000000000000000000e+09
  +1.10000000000000000000e+09
  +1.11000000000000000000e+09
  +1.12000000000000000000e+09
  +1.13000000000000000000e+09
  +1.14000000000000000000e+09
  +1.15000000000000000000e+09
  +1.16000000000000000000e+09
  +1.17000000000000000000e+09
  +1.18000000000000000000e+09
  +1.19000000000000000000e+09
  +1.20000000000000000000e+09
  +1.21000000000000000000e+09
  +1.22000000000000000000e+09
  +1.23000000000000000000e+09
  +1.24000000000000000000e+09
  +1.25000000000000000000e+09
  +1.26000000000000000000e+09
  +1.27000000000000000000e+09
  +1.28000000000000000000e+09
  +1.29000000000000000000e+09
  +1.30000000000000000000e+09
  +1.31000000000000000000e+09
  +1.32000000000000000000e+09
  +1.33000000000000000000e+09
  +1.34000000000000000000e+09
  +1.35000000000000000000e+09
  +1.36000000000000000000e+09
  +1.37000000000000000000e+09
  +1.38000000000000000000e+09
  +1.39000000000000000000e+09
  +1.40000000000000000000e+09
  +1.41000000000000000000e+09
  +1.42000000000000000000e+09
  +1.43000000000000000000e+09
  +1.44000000000000000000e+09
  +1.45000000000000000000e+09
  +1.46000000000000000000e+09
  +1.47000000000000000000e+09
  +1.48000000000000000000e+09
  +1.49000000000000000000e+09
  +1.50000000000000000000e+09
</indep>
<dep dBS12 frequency>
  -3.51499999999999985789e+01
  -3.39200000000000017053e+01
  -3.30700000000000002842e+01
  -3.22800000000000011369e+01
  -3.16700000000000017053e+01
  -3.10599999999999987210e+01
  -3.06099999999999994316e+01
  -3.01200000000000009948e+01
  -2.97899999999999991473e+01
  -2.94299999999999997158e+01
  -2.91099999999999994316e+01
  -2.88799999999999990052e+01
  -2.86700000000000017053e+01
  -2.83999999999999985789e+01
  -2.82399999999999984368e+01
  -2.80199999999999995737e+01
  -2.78399999999999963052e+01
  -2.77800000000000011369e+01
  -2.75300000000000011369e+01
  -2.74400000000000012790e+01
  -2.73399999999999998579e+01
  -2.72599999999999980105e+01
  -2.70599999999999987210e+01
  -2.69699999999999988631e+01
  -2.68500000000000014211e+01
  -2.67300000000000004263e+01
  -2.66499999999999985789e+01
  -2.65399999999999991473e+01
  -2.63900000000000005684e+01
  -2.63500000000000014211e+01
  -2.62300000000000039790e+01
  -2.61299999999999990052e+01
  -2.60799999999999982947e+01
  -2.59799999999999968736e+01
  -2.59100000000000036948e+01
  -2.58000000000000007105e+01
  -2.56599999999999965894e+01
  -2.56200000000000045475e+01
  -2.55399999999999991473e+01
  -2.54299999999999997158e+01
  -2.53799999999999990052e+01
  -2.52600000000000015632e+01
  -2.51900000000000012790e+01
  -2.50700000000000002842e+01
  -2.50399999999999991473e+01
  -2.49400000000000012790e+01
  -2.48399999999999998579e+01
  -2.47599999999999980105e+01
  -2.46600000000000036948e+01
  -2.45399999999999991473e+01
  -2.45300000000000011369e+01
  -2.43999999999999985789e+01
  -2.43400000000000034106e+01
  -2.42800000000000011369e+01
  -2.41499999999999985789e+01
  -2.40700000000000002842e+01
  -2.40300000000000011369e+01
  -2.39499999999999992895e+01
  -2.38500000000000014211e+01
  -2.37500000000000000000e+01
  -2.37100000000000008527e+01
  -2.36499999999999985789e+01
  -2.35700000000000002842e+01
  -2.35000000000000000000e+01
  -2.34400000000000048317e+01
  -2.33200000000000002842e+01
  -2.32699999999999995737e+01
  -2.31799999999999997158e+01
  -2.30900000000000034106e+01
  -2.30100000000000015632e+01
  -2.30100000000000015632e+01
  -2.28799999999999990052e+01
  -2.28099999999999951683e+01
  -2.27400000000000019895e+01
  -2.26999999999999992895e+01
  -2.26199999999999974420e+01
  -2.25599999999999987210e+01
  -2.24699999999999988631e+01
  -2.23999999999999985789e+01
  -2.23500000000000014211e+01
  -2.22800000000000011369e+01
  -2.22100000000000008527e+01
  -2.21300000000000025580e+01
  -2.20700000000000002842e+01
  -2.20000000000000000000e+01
  -2.19299999999999997158e+01
  -2.18700000000000045475e+01
  -2.18000000000000007105e+01
  -2.17300000000000004263e+01
  -2.16900000000000012790e+01
  -2.16299999999999990052e+01
  -2.15300000000000011369e+01
  -2.14800000000000004263e+01
  -2.14400000000000012790e+01
  -2.13799999999999990052e+01
  -2.12999999999999971578e+01
  -2.12500000000000000000e+01
  -2.12000000000000028422e+01
  -2.10899999999999998579e+01
  -2.10500000000000042633e+01
  -2.10000000000000000000e+01
  -2.09699999999999988631e+01
  -2.08800000000000025580e+01
  -2.08399999999999998579e+01
  -2.07600000000000015632e+01
  -2.06899999999999977263e+01
  -2.06499999999999950262e+01
  -2.05900000000000034106e+01
  -2.05499999999999971578e+01
  -2.04700000000000024158e+01
  -2.04200000000000017053e+01
  -2.03799999999999954525e+01
  -2.03200000000000002842e+01
  -2.02799999999999940314e+01
  -2.01900000000000012790e+01
  -2.01600000000000001421e+01
  -2.01400000000000005684e+01
  -2.00599999999999987210e+01
  -1.99799999999999968736e+01
  -1.99600000000000008527e+01
  -1.99200000000000017053e+01
  -1.98200000000000002842e+01
  -1.97800000000000011369e+01
  -1.97500000000000000000e+01
  -1.97000000000000028422e+01
  -1.96499999999999985789e+01
  -1.96000000000000049738e+01
  -1.95300000000000011369e+01
  -1.94800000000000004263e+01
  -1.94099999999999965894e+01
  -1.93900000000000005684e+01
  -1.93400000000000034106e+01
  -1.92899999999999991473e+01
  -1.92299999999999968736e+01
  -1.92100000000000008527e+01
  -1.91499999999999985789e+01
  -1.91099999999999994316e+01
  -1.90700000000000002842e+01
  -1.89800000000000004263e+01
  -1.89600000000000008527e+01
  -1.89200000000000017053e+01
</dep>
<dep dBS21 frequency>
  +2.00899999999999998579e+01
  +2.07199999999999988631e+01
  +2.12300000000000039790e+01
  +2.16299999999999990052e+01
  +2.19600000000000008527e+01
  +2.22100000000000008527e+01
  +2.23999999999999985789e+01
  +2.25499999999999971578e+01
  +2.26299999999999990052e+01
  +2.26900000000000012790e+01
  +2.27300000000000004263e+01
  +2.27400000000000019895e+01
  +2.27300000000000004263e+01
  +2.26999999999999992895e+01
  +2.26600000000000001421e+01
  +2.26000000000000014211e+01
  +2.25300000000000011369e+01
  +2.24500000000000028422e+01
  +2.23900000000000005684e+01
  +2.23200000000000002842e+01
  +2.22500000000000000000e+01
  +2.21700000000000017053e+01
  +2.20799999999999982947e+01
  +2.20100000000000015632e+01
  +2.19200000000000017053e+01
  +2.18400000000000034106e+01
  +2.17600000000000015632e+01
  +2.16700000000000017053e+01
  +2.15799999999999982947e+01
  +2.14900000000000019895e+01
  +2.14200000000000017053e+01
  +2.13200000000000002842e+01
  +2.12399999999999948841e+01
  +2.11600000000000001421e+01
  +2.10700000000000002842e+01
  +2.09799999999999968736e+01
  +2.08999999999999985789e+01
  +2.08200000000000002842e+01
  +2.07399999999999984368e+01
  +2.06499999999999985789e+01
  +2.05700000000000002842e+01
  +2.05000000000000000000e+01
  +2.04100000000000001421e+01
  +2.03299999999999982947e+01
  +2.02400000000000019895e+01
  +2.01700000000000017053e+01
  +2.00799999999999982947e+01
  +2.00100000000000051159e+01
  +1.99299999999999997158e+01
  +1.98399999999999998579e+01
  +1.97699999999999995737e+01
  +1.96899999999999977263e+01
  +1.96099999999999994316e+01
  +1.95300000000000011369e+01
  +1.94499999999999992895e+01
  +1.93799999999999990052e+01
  +1.93000000000000007105e+01
  +1.92300000000000004263e+01
  +1.91499999999999985789e+01
  +1.90799999999999982947e+01
  +1.90100000000000015632e+01
  +1.89300000000000032685e+01
  +1.88599999999999994316e+01
  +1.87800000000000011369e+01
  +1.86999999999999992895e+01
  +1.86400000000000005684e+01
  +1.85599999999999987210e+01
  +1.84899999999999984368e+01
  +1.84100000000000001421e+01
  +1.83500000000000014211e+01
  +1.82699999999999995737e+01
  +1.81999999999999992895e+01
  +1.81299999999999990052e+01
  +1.80599999999999987210e+01
  +1.80000000000000000000e+01
  +1.79200000000000017053e+01
  +1.78599999999999994316e+01
  +1.77899999999999991473e+01
  +1.77199999999999988631e+01
  +1.76499999999999985789e+01
  +1.75899999999999998579e+01
  +1.75199999999999995737e+01
  +1.74600000000000008527e+01
  +1.73900000000000005684e+01
  +1.73299999999999982947e+01
  +1.72600000000000015632e+01
  +1.71900000000000012790e+01
  +1.71400000000000005684e+01
  +1.70700000000000002842e+01
  +1.70100000000000015632e+01
  +1.69400000000000012790e+01
  +1.68799999999999990052e+01
  +1.68200000000000002842e+01
  +1.67600000000000015632e+01
  +1.66999999999999957367e+01
  +1.66400000000000005684e+01
  +1.65700000000000002842e+01
  +1.65100000000000015632e+01
  +1.64600000000000008527e+01
  +1.63999999999999985789e+01
  +1.63399999999999963052e+01
  +1.62800000000000011369e+01
  +1.62199999999999988631e+01
  +1.61600000000000001421e+01
  +1.61000000000000014211e+01
  +1.60399999999999991473e+01
  +1.60000000000000000000e+01
  +1.59299999999999997158e+01
  +1.58699999999999992184e+01
  +1.58200000000000002842e+01
  +1.57600000000000015632e+01
  +1.57100000000000008527e+01
  +1.56499999999999985789e+01
  +1.55899999999999998579e+01
  +1.55399999999999991473e+01
  +1.54899999999999984368e+01
  +1.54400000000000012790e+01
  +1.53800000000000007816e+01
  +1.53299999999999982947e+01
  +1.52800000000000011369e+01
  +1.52200000000000006395e+01
  +1.51699999999999981526e+01
  +1.51200000000000009948e+01
  +1.50600000000000004974e+01
  +1.50099999999999980105e+01
  +1.49600000000000008527e+01
  +1.49100000000000001421e+01
  +1.48599999999999976552e+01
  +1.48100000000000004974e+01
  +1.47599999999999997868e+01
  +1.47100000000000008527e+01
  +1.46700000000000017053e+01
  +1.46099999999999994316e+01
  +1.45700000000000002842e+01
  +1.45199999999999995737e+01
  +1.44700000000000006395e+01
  +1.44199999999999999289e+01
  +1.43699999999999956657e+01
  +1.43200000000000002842e+01
  +1.42699999999999995737e+01
  +1.42300000000000004263e+01
</dep>
<dep dBS22 frequency>
  -1.20299999999999975842e+01
  -1.15000000000000000000e+01
  -1.11799999999999997158e+01
  -1.09900000000000002132e+01
  -1.09299999999999997158e+01
  -1.09200000000000017053e+01
  -1.10299999999999993605e+01
  -1.11799999999999997158e+01
  -1.13299999999999982947e+01
  -1.15799999999999982947e+01
  -1.18399999999999963052e+01
  -1.20700000000000002842e+01
  -1.24000000000000003553e+01
  -1.26999999999999992895e+01
  -1.30500000000000007105e+01
  -1.33699999999999992184e+01
  -1.35900000000000016342e+01
  -1.38200000000000002842e+01
  -1.42300000000000022027e+01
  -1.46000000000000014211e+01
  -1.49700000000000006395e+01
  -1.52600000000000015632e+01
  -1.55299999999999993605e+01
  -1.59600000000000008527e+01
  -1.62899999999999991473e+01
  -1.66000000000000014211e+01
  -1.70300000000000011369e+01
  -1.73999999999999985789e+01
  -1.77100000000000044054e+01
  -1.80199999999999995737e+01
  -1.83000000000000007105e+01
  -1.87700000000000031264e+01
  -1.90099999999999980105e+01
  -1.93900000000000041211e+01
  -1.96200000000000045475e+01
  -1.99799999999999968736e+01
  -2.01700000000000017053e+01
  -2.05599999999999951683e+01
  -2.08600000000000029843e+01
  -2.12199999999999988631e+01
  -2.15599999999999951683e+01
  -2.18700000000000081002e+01
  -2.21699999999999945999e+01
  -2.25499999999999971578e+01
  -2.26499999999999914735e+01
  -2.29400000000000048317e+01
  -2.31400000000000005684e+01
  -2.34800000000000039790e+01
  -2.37899999999999955946e+01
  -2.41399999999999970157e+01
  -2.44499999999999957367e+01
  -2.48999999999999914735e+01
  -2.50799999999999947420e+01
  -2.54399999999999977263e+01
  -2.57400000000000019895e+01
  -2.61000000000000014211e+01
  -2.64299999999999997158e+01
  -2.66999999999999992895e+01
  -2.66600000000000001421e+01
  -2.73599999999999923261e+01
  -2.76600000000000036948e+01
  -2.77899999999999991473e+01
  -2.84299999999999997158e+01
  -2.81599999999999894840e+01
  -2.86399999999999792522e+01
  -2.91199999999999974420e+01
  -2.93300000000000054001e+01
  -2.96100000000000029843e+01
  -2.99899999999999948841e+01
  -3.03900000000000005684e+01
  -3.05599999999999880629e+01
  -3.06200000000000258638e+01
  -3.09899999999999806732e+01
  -3.13799999999999741362e+01
  -3.17100000000000008527e+01
  -3.19000000000000127898e+01
  -3.22800000000000224532e+01
  -3.25600000000000306954e+01
  -3.27500000000000426326e+01
  -3.29100000000000108002e+01
  -3.33699999999999548095e+01
  -3.32399999999999806732e+01
  -3.38899999999999792522e+01
  -3.38600000000000065370e+01
  -3.41100000000000207478e+01
  -3.42099999999999653255e+01
  -3.45999999999999943157e+01
  -3.42599999999999909051e+01
  -3.43599999999999710099e+01
  -3.42799999999999940314e+01
  -3.40300000000000153477e+01
  -3.39600000000000150635e+01
  -3.39099999999999752731e+01
  -3.38699999999999974420e+01
  -3.38699999999999903366e+01
  -3.35200000000000102318e+01
  -3.33600000000000136424e+01
  -3.34799999999999826628e+01
  -3.28300000000000054001e+01
  -3.30200000000000173372e+01
  -3.24599999999999866418e+01
  -3.22300000000000039790e+01
  -3.19400000000000119371e+01
  -3.15500000000000255795e+01
  -3.13000000000000078160e+01
  -3.09399999999999977263e+01
  -3.06700000000000159162e+01
  -3.04900000000000162004e+01
  -3.02599999999999944578e+01
  -3.00499999999999758415e+01
  -2.99899999999999913314e+01
  -2.98499999999999943157e+01
  -2.93700000000000187583e+01
  -2.90700000000000073896e+01
  -2.88500000000000156319e+01
  -2.84999999999999964473e+01
  -2.81299999999999847944e+01
  -2.80099999999999909051e+01
  -2.76099999999999958789e+01
  -2.74500000000000028422e+01
  -2.72899999999999955946e+01
  -2.71300000000000025580e+01
  -2.69599999999999937472e+01
  -2.67800000000000011369e+01
  -2.67199999999999917577e+01
  -2.64900000000000019895e+01
  -2.62700000000000031264e+01
  -2.60199999999999995737e+01
  -2.59000000000000056843e+01
  -2.55199999999999924682e+01
  -2.52900000000000027001e+01
  -2.51799999999999997158e+01
  -2.48900000000000041211e+01
  -2.47800000000000117950e+01
  -2.46400000000000041211e+01
  -2.45499999999999971578e+01
  -2.44300000000000068212e+01
  -2.42500000000000071054e+01
  -2.40600000000000022737e+01
  -2.40100000000000015632e+01
  -2.37300000000000039790e+01
</dep>
<dep K frequency>
  +1.62878987953582532455e+00
  +1.46967986653522086904e+00
  +1.38292374025193587350e+00
  +1.32050797931329833013e+00
  +1.27758414902001016245e+00
  +1.24177523809141931999e+00
  +1.21882106004931767274e+00
  +1.19481085532815201056e+00
  +1.18581920187368528019e+00
  +1.17405162132224782923e+00
  +1.16378687129840985293e+00
  +1.15976964455533160248e+00
  +1.15757475501141993135e+00
  +1.15156999855160302459e+00
  +1.15200874851817602895e+00
  +1.14776046156121069863e+00
  +1.14693834888934875771e+00
  +1.15220637968503258897e+00
  +1.14400088306648917147e+00
  +1.14676324940813612052e+00
  +1.14798304601238787548e+00
  +1.15050761132896917083e+00
  +1.14561209987741663419e+00
  +1.14690253068178016349e+00
  +1.14642703944791146675e+00
  +1.14556298542902879056e+00
  +1.14708826599094093623e+00
  +1.14708455761449568122e+00
  +1.14422212359998676234e+00
  +1.14814400340776501253e+00
  +1.14560504582899502779e+00
  +1.14626231557232238778e+00
  +1.14859210101141639981e+00
  +1.14766679617566191851e+00
  +1.14916696188840705695e+00
  +1.14801117089594684195e+00
  +1.14420845457309217075e+00
  +1.14692918444164160263e+00
  +1.14704143196452701403e+00
  +1.14567959514329009707e+00
  +1.14765850402886648851e+00
  +1.14441589342982874555e+00
  +1.14566449825406246887e+00
  +1.14284050378604562503e+00
  +1.14663728318513080673e+00
  +1.14445843912258049535e+00
  +1.14344234311002312943e+00
  +1.14253264727424919123e+00
  +1.14107050512976604395e+00
  +1.13897981092694111638e+00
  +1.14260758675759088732e+00
  +1.13922072701796928129e+00
  +1.14038209290536940443e+00
  +1.14138856895731710672e+00
  +1.13803580685726624111e+00
  +1.13720916848480002592e+00
  +1.13923871171442558925e+00
  +1.13844937706674609323e+00
  +1.13677515446327848103e+00
  +1.13449028892032544036e+00
  +1.13606561017939178271e+00
  +1.13706114208580344460e+00
  +1.13606664003802970697e+00
  +1.13656338184240546241e+00
  +1.13746282825402778016e+00
  +1.13345348264213252598e+00
  +1.13506161364533930680e+00
  +1.13357428616793876053e+00
  +1.13260159182570685488e+00
  +1.13102065672413232278e+00
  +1.13582104794734362052e+00
  +1.13166040057287875520e+00
  +1.13128904046068856637e+00
  +1.13109069837441778006e+00
  +1.13192211594911062988e+00
  +1.13188854136601757538e+00
  +1.13159183392155426873e+00
  +1.12995681051400875816e+00
  +1.12984171260894972200e+00
  +1.13085268936812788354e+00
  +1.12995305982407212575e+00
  +1.12982979501762481611e+00
  +1.12810428152215935782e+00
  +1.12851248448043794959e+00
  +1.12762952905397217940e+00
  +1.12726169575839452186e+00
  +1.12756426990501568142e+00
  +1.12625426012849327861e+00
  +1.12592232500275835072e+00
  +1.12684987375527634335e+00
  +1.12706544236343675358e+00
  +1.12447430537909420778e+00
  +1.12511016880595993150e+00
  +1.12599920546725784654e+00
  +1.12582385750382241163e+00
  +1.12426911259548556465e+00
  +1.12536859406982503451e+00
