<Qucs Dataset 1.0.5>
<indep frequency 101>
  +4.00000000000000000000e+08
  +4.10000000000000000000e+08
  +4.20000000000000000000e+08
  +4.30000000000000000000e+08
  +4.40000000000000000000e+08
  +4.50000000000000000000e+08
  +4.60000000000000000000e+08
  +4.70000000000000000000e+08
  +4.80000000000000000000e+08
  +4.90000000000000000000e+08
  +5.00000000000000000000e+08
  +5.10000000000000000000e+08
  +5.20000000000000000000e+08
  +5.30000000000000000000e+08
  +5.40000000000000000000e+08
  +5.50000000000000000000e+08
  +5.60000000000000000000e+08
  +5.70000000000000000000e+08
  +5.80000000000000000000e+08
  +5.90000000000000000000e+08
  +6.00000000000000000000e+08
  +6.10000000000000000000e+08
  +6.20000000000000000000e+08
  +6.30000000000000000000e+08
  +6.40000000000000000000e+08
  +6.50000000000000000000e+08
  +6.60000000000000000000e+08
  +6.70000000000000000000e+08
  +6.80000000000000000000e+08
  +6.90000000000000000000e+08
  +7.00000000000000000000e+08
  +7.10000000000000000000e+08
  +7.20000000000000000000e+08
  +7.30000000000000000000e+08
  +7.40000000000000000000e+08
  +7.50000000000000000000e+08
  +7.60000000000000000000e+08
  +7.70000000000000000000e+08
  +7.80000000000000000000e+08
  +7.90000000000000000000e+08
  +8.00000000000000000000e+08
  +8.10000000000000000000e+08
  +8.20000000000000000000e+08
  +8.30000000000000000000e+08
  +8.40000000000000000000e+08
  +8.50000000000000000000e+08
  +8.60000000000000000000e+08
  +8.70000000000000000000e+08
  +8.80000000000000000000e+08
  +8.90000000000000000000e+08
  +9.00000000000000000000e+08
  +9.10000000000000000000e+08
  +9.20000000000000000000e+08
  +9.30000000000000000000e+08
  +9.40000000000000000000e+08
  +9.50000000000000000000e+08
  +9.60000000000000000000e+08
  +9.70000000000000000000e+08
  +9.80000000000000000000e+08
  +9.90000000000000000000e+08
  +1.00000000000000000000e+09
  +1.01000000000000000000e+09
  +1.02000000000000000000e+09
  +1.03000000000000000000e+09
  +1.04000000000000000000e+09
  +1.05000000000000000000e+09
  +1.06000000000000000000e+09
  +1.07000000000000000000e+09
  +1.08000000000000000000e+09
  +1.09000000000000000000e+09
  +1.10000000000000000000e+09
  +1.11000000000000000000e+09
  +1.12000000000000000000e+09
  +1.13000000000000000000e+09
  +1.14000000000000000000e+09
  +1.15000000000000000000e+09
  +1.16000000000000000000e+09
  +1.17000000000000000000e+09
  +1.18000000000000000000e+09
  +1.19000000000000000000e+09
  +1.20000000000000000000e+09
  +1.21000000000000000000e+09
  +1.22000000000000000000e+09
  +1.23000000000000000000e+09
  +1.24000000000000000000e+09
  +1.25000000000000000000e+09
  +1.26000000000000000000e+09
  +1.27000000000000000000e+09
  +1.28000000000000000000e+09
  +1.29000000000000000000e+09
  +1.30000000000000000000e+09
  +1.31000000000000000000e+09
  +1.32000000000000000000e+09
  +1.33000000000000000000e+09
  +1.34000000000000000000e+09
  +1.35000000000000000000e+09
  +1.36000000000000000000e+09
  +1.37000000000000000000e+09
  +1.38000000000000000000e+09
  +1.39000000000000000000e+09
  +1.40000000000000000000e+09
</indep>
<dep S11_dB frequency>
  -5.01949425066708876386e+00
  -5.23213088850561813814e+00
  -5.44812006194930198433e+00
  -5.66751700504702249361e+00
  -5.89038947693622549906e+00
  -6.11681807004293442986e+00
  -6.34689659350398205362e+00
  -6.58073254095692838916e+00
  -6.81844765282408893370e+00
  -7.06017858446876900302e+00
  -7.30607769316263144788e+00
  -7.55631395872743816255e+00
  -7.81107405506860708044e+00
  -8.07056359268525547179e+00
  -8.33500855572967047635e+00
  -8.60465696143215730274e+00
  -8.87978077487983519234e+00
  -9.16067811845682733463e+00
  -9.44767582300585750943e+00
  -9.74113237731813086384e+00
  -1.00414413443768406609e+01
  -1.03490353274873463363e+01
  -1.06643905878389233521e+01
  -1.09880324382382390525e+01
  -1.13205415671770399655e+01
  -1.16625614849880498980e+01
  -1.20148073322483774916e+01
  -1.23780763534381854640e+01
  -1.27532604211916904546e+01
  -1.31413611053561751874e+01
  -1.35435079265431141948e+01
  -1.39609806303567971497e+01
  -1.43952365870917766699e+01
  -1.48479447936052810775e+01
  -1.53210284762648711876e+01
  -1.58167190383098859030e+01
  -1.63376251740664244494e+01
  -1.68868225655961161635e+01
  -1.74679719775439536988e+01
  -1.80854772643549424060e+01
  -1.87447006482004745465e+01
  -1.94522621265893711495e+01
  -2.02164658190920611958e+01
  -2.10479238487258868417e+01
  -2.19604988730810077868e+01
  -2.29727829610719105347e+01
  -2.41105265334673575239e+01
  -2.54108589332701697572e+01
  -2.69301644998718181512e+01
  -2.87602223638988228060e+01
  -3.10658359057085249333e+01
  -3.41911225580861213302e+01
  -3.90755772367491545083e+01
  -5.07686511312678305785e+01
  -4.48343662987059303759e+01
  -3.70945955329304695169e+01
  -3.30648740822317037669e+01
  -3.03298609924550106598e+01
  -2.82590420702233835470e+01
  -2.65929798639060592791e+01
  -2.51994883109409428812e+01
  -2.40020156355131533132e+01
  -2.29522369940454922244e+01
  -2.20176851968013949090e+01
  -2.11754916851617096540e+01
  -2.04089396696986078439e+01
  -1.97054376314848838092e+01
  -1.90552640636855912248e+01
  -1.84507560390369107495e+01
  -1.78857656799302731088e+01
  -1.73552849401502946591e+01
  -1.68551797892806796142e+01
  -1.63819976241500029346e+01
  -1.59328249609794987407e+01
  -1.55051804358197191647e+01
  -1.50969330973136077745e+01
  -1.47062391415462130340e+01
  -1.43314923102227211871e+01
  -1.39712845585877332155e+01
  -1.36243745440206751596e+01
  -1.32896621418039480034e+01
  -1.29661676569597457132e+01
  -1.26530147320526751287e+01
  -1.23494161910286930350e+01
  -1.20546622356193715575e+01
  -1.17681105419928027089e+01
  -1.14891779038620338582e+01
  -1.12173331430243727880e+01
  -1.09520910655649750254e+01
  -1.06930072861959821751e+01
  -1.04396737776627173133e+01
  -1.01917150291967928410e+01
  -9.94878471938543995634e+00
  -9.71056282585532137830e+00
  -9.47675310781674440364e+00
  -9.24708090852194253273e+00
  -9.02129123362089657689e+00
  -8.79914706868682827690e+00
  -8.58042790516449649374e+00
  -8.36492844893039055876e+00
  -8.15245748974834860689e+00
</dep>
<dep S21_dB frequency>
  -1.67208290623288569066e+00
  -1.57718278115528409700e+00
  -1.48735729170142150224e+00
  -1.40230438169544369131e+00
  -1.32174374632248770034e+00
  -1.24541502219822253217e+00
  -1.17307615396408659869e+00
  -1.10450191690207621953e+00
  -1.03948257793760379109e+00
  -9.77822679797365479359e-01
  -9.19339935099561467169e-01
  -8.63864218849620613128e-01
  -8.11236649251249164472e-01
  -7.61308747966187859824e-01
  -7.13941672003703287075e-01
  -6.69005510321135088425e-01
  -6.26378638995117809074e-01
  -5.85947129497556673527e-01
  -5.47604205198623072981e-01
  -5.11249741732705653696e-01
  -4.76789807314398239591e-01
  -4.44136239488893136418e-01
  -4.13206255151731371988e-01
  -3.83922090984019970250e-01
  -3.56210671725111283070e-01
  -3.30003303951126591986e-01
  -3.05235393247026309815e-01
  -2.81846182856916149806e-01
  -2.59778512073446821162e-01
  -2.38978592785626664519e-01
  -2.19395802747182067094e-01
  -2.00982494256258387155e-01
  -1.83693817053456387445e-01
  -1.67487554350456924190e-01
  -1.52323970996852686710e-01
  -1.38165672879248885296e-01
  -1.24977476725429151316e-01
  -1.12726289557849232437e-01
  -1.01380997106025855237e-01
  -9.09123605469632223297e-02
  -8.12929209970593424917e-02
  -7.24969112288512684827e-02
  -6.45001741316094667766e-02
  -5.72800874767901840867e-02
  -5.08154945877702796109e-02
  -4.50866405491753066692e-02
  -4.00751136236047258987e-02
  -3.57637915743037604344e-02
  -3.21367926202529019530e-02
  -2.91794307767342941951e-02
  -2.68781753586136706868e-02
  -2.52206144468084397792e-02
  -2.41954221397503443924e-02
  -2.37923294322192613315e-02
  -2.40020985829901174757e-02
  -2.48165008513270869683e-02
  -2.62282974997075368773e-02
  -2.82312239773022666256e-02
  -3.08199772149068303151e-02
  -3.39902059782408103028e-02
  -3.77385042419825858517e-02
  -4.20624075624784557470e-02
  -4.69603924425329166681e-02
  -5.24318786971243039341e-02
  -5.84772348443029221787e-02
  -6.50977865616931411497e-02
  -7.22958282651128408824e-02
  -8.00746378825035465265e-02
  -8.84384949139243037308e-02
  -9.73927018864903515372e-02
  -1.06943609332110625698e-01
  -1.17098644436230484023e-01
  -1.27866343526974207689e-01
  -1.39256388597084335146e-01
  -1.51279648075503064808e-01
  -1.63948222091438167158e-01
  -1.77275492502475401357e-01
  -1.91276177988679046971e-01
  -2.05966394548101366935e-01
  -2.21363721765081511439e-01
  -2.37487275262436570156e-01
  -2.54357785791654134044e-01
  -2.71997685462465388362e-01
  -2.90431201664992755251e-01
  -3.09684459294633285253e-01
  -3.29785591952461654142e-01
  -3.50764862863103488166e-01
  -3.72654796328177828624e-01
  -3.95490320617714496976e-01
  -4.19308923295269142528e-01
  -4.44150820075724372948e-01
  -4.70059138429591683028e-01
  -4.97080117274754040846e-01
  -5.25263324238699147450e-01
  -5.54661892131774525438e-01
  -5.85332776448273417458e-01
  -6.17337035908608999790e-01
  -6.50740138275717860949e-01
  -6.85612293924970694903e-01
  -7.22028819923056786045e-01
  -7.60070537681278968201e-01
</dep>
<dep S[1,1] frequency>
  -4.29150329923095250062e-02+j5.59437029511670735893e-01
  -2.57942464324264174313e-02+j5.46903820953328456689e-01
  -9.61892960106136216125e-03+j5.33978222571234728555e-01
  +5.62406538803033543422e-03+j5.20713479143009361216e-01
  +1.99497033156193007142e-02+j5.07159759373854046594e-01
  +3.33744860663680309454e-02+j4.93364253372151229105e-01
  +4.59162006356781324246e-02+j4.79371280342522687601e-01
  +5.75936931681456862342e-02+j4.65222403562986219772e-01
  +6.84266672056517422096e-02+j4.50956550156959456999e-01
  +7.84355043129131568325e-02+j4.36610133568847369467e-01
  +8.76411052737622042752e-02+j4.22217177005430210901e-01
  +9.60647501037971141002e-02+j4.07809436416416426496e-01
  +1.03727975197147173625e-01+j3.93416521859202117373e-01
  +1.10652466010915773165e-01+j3.79066016328294619342e-01
  +1.16859963785544043735e-01+j3.64783591332251411199e-01
  +1.22372184899017244497e-01+j3.50593118673743264768e-01
  +1.27210751554388046269e-01+j3.36516778034588126545e-01
  +1.31397132601227178972e-01+j3.22575160090526724677e-01
  +1.34952593390446240473e-01+j3.08787364982811618486e-01
  +1.37898153657253136339e-01+j2.95171096058157389486e-01
  +1.40254552517815683776e-01+j2.81742748857528590989e-01
  +1.42042219750909914922e-01+j2.68517495389850591181e-01
  +1.43281252616129006761e-01+j2.55509363770914710301e-01
  +1.43991397534862203278e-01+j2.42731313342263582689e-01
  +1.44192036029293146893e-01+j2.30195305411126094342e-01
  +1.43902174378155528478e-01+j2.17912369771915220840e-01
  +1.43140436506136448092e-01+j2.05892667183487587668e-01
  +1.41925059676852649559e-01+j1.94145547985326627494e-01
  +1.40273892607521794007e-01+j1.82679607040867636458e-01
  +1.38204395667135382375e-01+j1.71502735198094918845e-01
  +1.35733642859380720935e-01+j1.60622167456893200077e-01
  +1.32878325327116353360e-01+j1.50044528029980361872e-01
  +1.29654756147155575396e-01+j1.39775872480021795541e-01
  +1.26078876212780688348e-01+j1.29821727110085827217e-01
  +1.22166261027066402889e-01+j1.20187125778270911813e-01
  +1.17932128253022391884e-01+j1.10876644300371599017e-01
  +1.13391345887014147187e-01+j1.01894432597041964539e-01
  +1.08558440940145967124e-01+j9.32442447342740066141e-02
  +1.03447608528488388391e-01+j8.49294669982179756262e-02
  +9.80727212874263620801e-02+j7.69531441376072600224e-02
  +9.24473390381813919792e-02+j6.93180038993312652718e-02
  +8.65847186458737483328e-02+j6.20264799751549106288e-02
  +8.04978240185215132563e-02+j5.50807334702195505738e-02
  +7.41993362052370403203e-02+j4.84826729968339115162e-02
  +6.77016635597379456968e-02+j4.22339734902087843293e-02
  +6.10169519422154998933e-02+j3.63360938361956681275e-02
  +5.41570949387474923076e-02+j3.07902933948005323728e-02
  +4.71337440828578924101e-02+j2.55976474972282770637e-02
  +3.99583190686336464648e-02+j2.07590619885024592339e-02
  +3.26420179490519574150e-02+j1.62752868822582733022e-02
  +2.51958273169540364345e-02+j1.21469291891506334102e-02
  +1.76305324694423504184e-02+j8.37446497540463366538e-03
  +9.95672755948641234613e-03+j4.95825070338374099266e-03
  +2.18482574118344236025e-03+j1.89853390161959234561e-03
  -5.67493068245746544453e-03-j8.04536792470302714042e-04
  -1.36124600981693370805e-02-j3.15090217796119495541e-03
  -2.16178313944925329371e-02-j5.14058358853936372967e-03
  -2.96812537324033648423e-02-j6.77367451166849092459e-03
  -3.77930662579706727611e-02-j8.05033270068146629417e-03
  -4.59437277389339454592e-02-j8.97077275509007912579e-03
  -5.41238061055929961518e-02-j9.53525914775493581288e-03
  -6.23239678749946471314e-02-j9.74409968081356957226e-03
  -7.05349674360104400561e-02-j9.59763935548038973899e-03
  -7.87476361715735706515e-02-j9.09625464401697322869e-03
  -8.69528713930197566517e-02-j8.24034815535009367016e-03
  -9.51416250601634094775e-02-j7.03034368902030401549e-03
  -1.03304892259436453816e-01-j5.46668167539103924679e-03
  -1.11433699411094280785e-01-j3.54981500337249802901e-03
  -1.19519092175157784497e-01-j1.28020524034311994344e-03
  -1.27552123024406438567e-01+j1.34168074748413843067e-03
  -1.35523838451360401081e-01+j4.31537376227840094312e-03
  -1.43425265774793114781e-01+j7.64040481348150085639e-03
  -1.51247399509891244929e-01+j1.13163072082945251329e-02
  -1.58981187264750245536e-01+j1.53426181692294730241e-02
  -1.66617515124445475516e-01+j1.97188799494226324471e-02
  -1.74147192482479062914e-01+j2.44446404112541662568e-02
  -1.81560936277986972875e-01+j2.95194530282530780141e-02
  -1.88849354595700291704e-01+j3.49428762642243068148e-02
  -1.96002929584329077528e-01+j4.07144722769412908958e-02
  -2.03011999647823321302e-01+j4.68338048865684572486e-02
  -2.09866740862849399107e-01+j5.33004367411131912968e-02
  -2.16557147574915703769e-01+j6.01139256025922802396e-02
  -2.23073012124891972841e-01+j6.72738196681540306932e-02
  -2.29403903657285884732e-01+j7.47796518300240242727e-02
  -2.35539145961642909510e-01+j8.26309327667433118902e-02
  -2.41467794298929366859e-01+j9.08271427456575214388e-02
  -2.47178611165836725760e-01+j9.93677220028438279442e-02
  -2.52660040951772135731e-01+j1.08252059551562945794e-01
  -2.57900183446016006972e-01+j1.17479480253707441184e-01
  -2.62886766156356088686e-01+j1.27049229970516985855e-01
  -2.67607115405609385927e-01+j1.36960458588858718931e-01
  -2.72048126179194271757e-01+j1.47212200697516643055e-01
  -2.76196230705485767931e-01+j1.57803353664038747972e-01
  -2.80037365761569401190e-01+j1.68732652836607210922e-01
  -2.83556938710541106552e-01+j1.79998643567048643988e-01
  -2.86739792293200901341e-01+j1.91599649720241349549e-01
  -2.89570168217436918479e-01+j2.03533738301868605269e-01
  -2.92031669613429523125e-01+j2.15798679800464271450e-01
  -2.94107222452793859446e-01+j2.28391903801097445603e-01
  -2.95779036065775824405e-01+j2.41310449386772291058e-01
  -2.97028562933660089662e-01+j2.54550909799821256652e-01
</dep>
<dep S[1,2] frequency>
  +8.22649794856600169446e-01+j6.07474306359183993664e-02
  +8.33134973900236386335e-01+j3.68976080023027744326e-02
  +8.42524411608611245583e-01+j1.27396069805590615720e-02
  +8.50832211769834145798e-01-j1.16713837676358286183e-02
  +8.58074319015509567876e-01-j3.62832595990776815564e-02
  +8.64268239024752582544e-01-j6.10469026644622561606e-02
  +8.69432786526868839339e-01-j8.59160744689649313877e-02
  +8.73587859336428684820e-01-j1.10847301151408103581e-01
  +8.76754236598440428452e-01-j1.35799753971394626673e-01
  +8.78953399411108282635e-01-j1.60735127095725072177e-01
  +8.80207372019175204869e-01-j1.85617514421986179451e-01
  +8.80538581823219201894e-01-j2.10413286866010101894e-01
  +8.79969736522391299260e-01-j2.35090971268224396828e-01
  +8.78523716793933373559e-01-j2.59621131838507213097e-01
  +8.76223483007484760243e-01-j2.83976254856741217036e-01
  +8.73091994571899454591e-01-j3.08130637173516908067e-01
  +8.69152140613830836990e-01-j3.32060278909175166095e-01
  +8.64426680788511481168e-01-j3.55742780626463972471e-01
  +8.58938195121968450785e-01-j3.79157245149769506209e-01
  +8.52709041879262108488e-01-j4.02284184119404863988e-01
  +8.45761322544132720935e-01-j4.25105429300508319557e-01
  +8.38116853081161461425e-01-j4.47604048610478311154e-01
  +8.29797140731838966943e-01-j4.69764266784703898860e-01
  +8.20823365670582894005e-01-j4.91571390565800847572e-01
  +8.11216366915786801783e-01-j5.13011738275304440826e-01
  +8.00996631954457916081e-01-j5.34072573607299094789e-01
  +7.90184289597182010212e-01-j5.54742043469791168420e-01
  +7.78799105633159460815e-01-j5.75009119690651715473e-01
  +7.66860480903274521758e-01-j5.94863544399899302206e-01
  +7.54387451452844803867e-01-j6.14295778898180877547e-01
  +7.41398690465125187465e-01-j6.33296955821948781562e-01
  +7.27912511712210164028e-01-j6.51858834418472699035e-01
  +7.13946874291924382661e-01-j6.69973758748069747604e-01
  +6.99519388447965684286e-01-j6.87634618636347560994e-01
  +6.84647322296206506387e-01-j7.04834813205596821817e-01
  +6.69347609303011514825e-01-j7.21568216821419361473e-01
  +6.53636856381857755949e-01-j7.37829147298083354301e-01
  +6.37531352492789804565e-01-j7.53612336213737132873e-01
  +6.21047077645422662684e-01-j7.68912901194393039184e-01
  +6.04199712220608087243e-01-j7.83726320033356183004e-01
  +5.87004646538662799848e-01-j7.98048406520480591020e-01
  +5.69476990613356770510e-01-j8.11875287863189742943e-01
  +5.51631584040907285704e-01-j8.25203383588537953131e-01
  +5.33483005982069213857e-01-j8.38029385822721351040e-01
  +5.15045585203294464804e-01-j8.50350240851302840994e-01
  +4.96333410149833398339e-01-j8.62163131869980281508e-01
  +4.77360339029821889589e-01-j8.73465462842041850955e-01
  +4.58140009893785615791e-01-j8.84254843384636779469e-01
  +4.38685850698840362760e-01-j8.94529074611713381771e-01
  +4.19011089351065013631e-01-j9.04286135866900320224e-01
  +3.99128763723355817206e-01-j9.13524172284777224995e-01
  +3.79051731649370449162e-01-j9.22241483123872662908e-01
  +3.58792680897213722702e-01-j9.30436510819388162830e-01
  +3.38364139129163576936e-01-j9.38107830708055590030e-01
  +3.17778483856156201970e-01-j9.45254141381770773833e-01
  +2.97047952397938297420e-01-j9.51874255630626553426e-01
  +2.76184651861765051439e-01-j9.57967091939842529946e-01
  +2.55200569154369893976e-01-j9.63531666508732009824e-01
  +2.34107581043594525916e-01-j9.68567085763427759737e-01
  +2.12917464287665059164e-01-j9.73072539338476705240e-01
  +1.91641905851595462096e-01-j9.77047293505775238387e-01
  +1.70292513231610570523e-01-j9.80490685032564757151e-01
  +1.48880824909875308926e-01-j9.83402115453407277279e-01
  +1.27418320963144704461e-01-j9.85781045744242745421e-01
  +1.05916433850275673589e-01-j9.87626991389827124657e-01
  +8.43865594048775063962e-02-j9.88939517839009796241e-01
  +6.28400680606384237636e-02-j9.89718236345578095126e-01
  +4.12883163382604459479e-02-j9.89962800195717473883e-01
  +1.97426586242151723416e-02-j9.89672901326546172740e-01
  -1.78554072707785838059e-03-j9.88848267343742093338e-01
  -2.32848949346631459156e-02-j9.87488658950018471927e-01
  -4.47439819416941900188e-02-j9.85593867800112710675e-01
  -6.61513311394735931126e-02-j9.83163714802138599680e-01
  -8.74954096276735066029e-02-j9.80198048889585060728e-01
  -1.08764607972013149784e-01-j9.76696746293010731321e-01
  -1.29947225419272976987e-01-j9.72659710345658679032e-01
  -1.51031454528062408782e-01-j9.68086871862735343086e-01
  -1.72005365172389540485e-01-j9.62978190140174383771e-01
  -1.92856887873733423566e-01-j9.57333654625261987192e-01
  -2.13573796416110628371e-01-j9.51153287318709073084e-01
  -2.34143689697488721624e-01-j9.44437145975590142122e-01
  -2.54553972770003855697e-01-j9.37185328181190602237e-01
  -2.74791837020737950148e-01-j9.29397976387243862639e-01
  -2.94844239444415290308e-01-j9.21075284004412520034e-01
