<Qucs Dataset 1.0.5>
<indep frequency 101>
  +4.00000000000000000000e+08
  +4.10000000000000000000e+08
  +4.20000000000000000000e+08
  +4.30000000000000000000e+08
  +4.40000000000000000000e+08
  +4.50000000000000000000e+08
  +4.60000000000000000000e+08
  +4.70000000000000000000e+08
  +4.80000000000000000000e+08
  +4.90000000000000000000e+08
  +5.00000000000000000000e+08
  +5.10000000000000000000e+08
  +5.20000000000000000000e+08
  +5.30000000000000000000e+08
  +5.40000000000000000000e+08
  +5.50000000000000000000e+08
  +5.60000000000000000000e+08
  +5.70000000000000000000e+08
  +5.80000000000000000000e+08
  +5.90000000000000000000e+08
  +6.00000000000000000000e+08
  +6.10000000000000000000e+08
  +6.20000000000000000000e+08
  +6.30000000000000000000e+08
  +6.40000000000000000000e+08
  +6.50000000000000000000e+08
  +6.60000000000000000000e+08
  +6.70000000000000000000e+08
  +6.80000000000000000000e+08
  +6.90000000000000000000e+08
  +7.00000000000000000000e+08
  +7.10000000000000000000e+08
  +7.20000000000000000000e+08
  +7.30000000000000000000e+08
  +7.40000000000000000000e+08
  +7.50000000000000000000e+08
  +7.60000000000000000000e+08
  +7.70000000000000000000e+08
  +7.80000000000000000000e+08
  +7.90000000000000000000e+08
  +8.00000000000000000000e+08
  +8.10000000000000000000e+08
  +8.20000000000000000000e+08
  +8.30000000000000000000e+08
  +8.40000000000000000000e+08
  +8.50000000000000000000e+08
  +8.60000000000000000000e+08
  +8.70000000000000000000e+08
  +8.80000000000000000000e+08
  +8.90000000000000000000e+08
  +9.00000000000000000000e+08
  +9.10000000000000000000e+08
  +9.20000000000000000000e+08
  +9.30000000000000000000e+08
  +9.40000000000000000000e+08
  +9.50000000000000000000e+08
  +9.60000000000000000000e+08
  +9.70000000000000000000e+08
  +9.80000000000000000000e+08
  +9.90000000000000000000e+08
  +1.00000000000000000000e+09
  +1.01000000000000000000e+09
  +1.02000000000000000000e+09
  +1.03000000000000000000e+09
  +1.04000000000000000000e+09
  +1.05000000000000000000e+09
  +1.06000000000000000000e+09
  +1.07000000000000000000e+09
  +1.08000000000000000000e+09
  +1.09000000000000000000e+09
  +1.10000000000000000000e+09
  +1.11000000000000000000e+09
  +1.12000000000000000000e+09
  +1.13000000000000000000e+09
  +1.14000000000000000000e+09
  +1.15000000000000000000e+09
  +1.16000000000000000000e+09
  +1.17000000000000000000e+09
  +1.18000000000000000000e+09
  +1.19000000000000000000e+09
  +1.20000000000000000000e+09
  +1.21000000000000000000e+09
  +1.22000000000000000000e+09
  +1.23000000000000000000e+09
  +1.24000000000000000000e+09
  +1.25000000000000000000e+09
  +1.26000000000000000000e+09
  +1.27000000000000000000e+09
  +1.28000000000000000000e+09
  +1.29000000000000000000e+09
  +1.30000000000000000000e+09
  +1.31000000000000000000e+09
  +1.32000000000000000000e+09
  +1.33000000000000000000e+09
  +1.34000000000000000000e+09
  +1.35000000000000000000e+09
  +1.36000000000000000000e+09
  +1.37000000000000000000e+09
  +1.38000000000000000000e+09
  +1.39000000000000000000e+09
  +1.40000000000000000000e+09
</indep>
<dep S11_dB frequency>
  -1.56075733411996893096e+01
  -1.53946779656321268703e+01
  -1.51869643292574014737e+01
  -1.49841873447412350373e+01
  -1.47861186517190006384e+01
  -1.45925451090485669425e+01
  -1.44032674528646467138e+01
  -1.42180990990366211690e+01
  -1.40368650717855629750e+01
  -1.38594010428511360544e+01
  -1.36855524678064792710e+01
  -1.35151738079778525048e+01
  -1.33481278279952029209e+01
  -1.31842849603302365580e+01
  -1.30235227293096009760e+01
  -1.28657252280563128011e+01
  -1.27107826426383407892e+01
  -1.25585908184126324727e+01
  -1.24090508641626904307e+01
  -1.22620687901554461519e+01
  -1.21175551766985236668e+01
  -1.19754248701752210593e+01
  -1.18355967038784530843e+01
  -1.16979932412653315765e+01
  -1.15625405395161724442e+01
  -1.14291679315118415161e+01
  -1.12978078245447104422e+01
  -1.11683955142564137475e+01
  -1.10408690124517647746e+01
  -1.09151688875763674957e+01
  -1.07912381167678983473e+01
  -1.06690219484994273103e+01
  -1.05484677749292359294e+01
  -1.04295250131575674146e+01
  -1.03121449946667596009e+01
  -1.01962808622897576072e+01
  -1.00818874741125874550e+01
  -9.96892131377108903223e+00
  -9.85734040665140476278e+00
  -9.74710424154716115197e+00
  -9.63817369736650064738e+00
  -9.53051097451704265495e+00
  -9.42407953062974357294e+00
  -9.31884402031107939024e+00
  -9.21477023863942434900e+00
  -9.11182506814560611019e+00
  -9.00997642903863571462e+00
  -8.90919323245765681918e+00
  -8.80944533654876948958e+00
  -8.71070350518164460141e+00
  -8.61293936913570767899e+00
  -8.51612538959889064927e+00
  -8.42023482383459054290e+00
  -8.32524169288362081431e+00
  -8.23112075117811059499e+00
  -8.13784745795397768120e+00
  -8.04539795035715421534e+00
  -7.95374901814674206690e+00
  -7.86287807990560505544e+00
  -7.77276316067566241941e+00
  -7.68338287094135008459e+00
  -7.59471638689045747128e+00
  -7.50674343188683579342e+00
  -7.41944425909450533396e+00
  -7.33279963519688937623e+00
  -7.24679082515950412358e+00
  -7.16139957798814741352e+00
  -7.07660811343816309460e+00
  -6.99239910963376676278e+00
  -6.90875569155983360048e+00
  -6.82566142039090273386e+00
  -6.74310028362540858637e+00
  -6.66105668599527867002e+00
  -6.57951544112373554185e+00
  -6.49846176390602803252e+00
  -6.41788126359012345290e+00
  -6.33775993753617061799e+00
  -6.25808416563540959032e+00
  -6.17884070537091645292e+00
  -6.10001668750404135722e+00
  -6.02159961237197549622e+00
  -5.94357734678319360455e+00
  -5.86593812149889437535e+00
  -5.78867052928959147096e+00
  -5.71176352355731165034e+00
  -5.63520641751477313619e+00
  -5.55898888391386680752e+00
  -5.48310095531672381242e+00
  -5.40753302490343390474e+00
  -5.33227584781102770251e+00
  -5.25732054299942763720e+00
  -5.18265859564014874650e+00
  -5.10828186002425876922e+00
  -5.03418256298682997851e+00
  -4.96035330784480787969e+00
  -4.88678707884619356605e+00
  -4.81347724612817629009e+00
  -4.74041757118208639810e+00
  -4.66760221282307607993e+00
  -4.59502573366240518737e+00
  -4.52268310707992782227e+00
</dep>
<dep S21_dB frequency>
  -1.33489717141705738213e-01
  -1.39846121851418592197e-01
  -1.46359598607316204744e-01
  -1.53030746431640579663e-01
  -1.59860190025465337404e-01
  -1.66848581365046155778e-01
  -1.73996601312336601763e-01
  -1.81304961244253520780e-01
  -1.88774404704026010915e-01
  -1.96405709078459167483e-01
  -2.04199687303993016041e-01
  -2.12157189604583296116e-01
  -2.20279105264228308725e-01
  -2.28566364436685293127e-01
  -2.37019939994966621910e-01
  -2.45640849422958412740e-01
  -2.54430156751718594688e-01
  -2.63388974542580645011e-01
  -2.72518465919665664465e-01
  -2.81819846653852068563e-01
  -2.91294387300821078224e-01
  -3.00943415395350077901e-01
  -3.10768317704392504908e-01
  -3.20770542541416681104e-01
  -3.30951602144426315633e-01
  -3.41313075120460940326e-01
  -3.51856608959012828741e-01
  -3.62583922617399856403e-01
  -3.73496809180829281161e-01
  -3.84597138600154764276e-01
  -3.95886860510435201199e-01
  -4.07368007133628251548e-01
  -4.19042696268632219869e-01
  -4.30913134372324646559e-01
  -4.42981619735216602951e-01
  -4.55250545755536251136e-01
  -4.67722404315814688225e-01
  -4.80399789266057197779e-01
  -4.93285400018024566826e-01
  -5.06382045255051815857e-01
  -5.19692646762357268742e-01
  -5.33220243382707792534e-01
  -5.46967995102786708195e-01
  -5.60939187275852457759e-01
  -5.75137234986204615161e-01
  -5.89565687561789619764e-01
  -6.04228233241074219606e-01
  -6.19128704000928675732e-01
  -6.34271080552357702231e-01
  -6.49659497511562822325e-01
  -6.65298248753739995820e-01
  -6.81191792957823838428e-01
  -6.97344759350424614475e-01
  -7.13761953657862546763e-01
  -7.30448364275544603785e-01
  -7.47409168664242562485e-01
  -7.64649739983643383923e-01
  -7.82175653973649076534e-01
  -7.99992696094742217205e-01
  -8.18106868939118991868e-01
  -8.36524399924948425245e-01
  -8.55251749286658591309e-01
  -8.74295618374920535665e-01
  -8.93662958280607488959e-01
  -9.13360978797658207284e-01
  -9.33397157740664229486e-01
  -9.53779250633839503770e-01
  -9.74515300788663219045e-01
  -9.95613649788506638316e-01
  -1.01708294839970592172e+00
  -1.03893216792910214608e+00
  -1.06117061204953322395e+00
  -1.08380792911565193570e+00
  -1.10685412499376889528e+00
  -1.13031957643053693197e+00
  -1.15421504498678118011e+00
  -1.17855169156400751973e+00
  -1.20334109155284618708e+00
  -1.22859525063405627954e+00
  -1.25432662126455607421e+00
  -1.28054811988271066703e+00
  -1.30727314486888435141e+00
  -1.33451559529961039097e+00
  -1.36228989053553095623e+00
  -1.39061099068579308025e+00
  -1.41949441799407249931e+00
  -1.44895627919383396254e+00
  -1.47901328888344973933e+00
  -1.50968279397477678216e+00
  -1.54098279927175330073e+00
  -1.57293199423955876171e+00
  -1.60554978102798728834e+00
  -1.63885630381706626224e+00
  -1.67287247955707618630e+00
  -1.70762003017977326280e+00
  -1.74312151636248957587e+00
  -1.77940037293232067306e+00
  -1.81648094600304399471e+00
  -1.85438853194407515801e+00
  -1.89314941828726324147e+00
  -1.93279092668461238702e+00
</dep>
<dep S[1,1] frequency>
  -1.05738824071050063758e-01-j1.27724707895348621456e-01
  -1.10609598829328192870e-01-j1.29000757843578367501e-01
  -1.15555039791982602781e-01-j1.30143506362963207179e-01
  -1.20572036059860526747e-01-j1.31150711267981417985e-01
  -1.25657425665008370963e-01-j1.32020196347988866270e-01
  -1.30807997035952416898e-01-j1.32749852187964756389e-01
  -1.36020490465393883994e-01-j1.33337636944692528029e-01
  -1.41291599578516891000e-01-j1.33781577078740249176e-01
  -1.46617972800116125320e-01-j1.34079768042697666797e-01
  -1.51996214818743952124e-01-j1.34230374926187251416e-01
  -1.57422888046099163084e-01-j1.34231633058255417357e-01
  -1.62894514069880869123e-01-j1.34081848567825206997e-01
  -1.68407575098357881194e-01-j1.33779398902964280493e-01
  -1.73958515394915469443e-01-j1.33322733309803487245e-01
  -1.79543742700875363916e-01-j1.32710373272015680346e-01
  -1.85159629644901929657e-01-j1.31940912911842567201e-01
  -1.90802515137348444041e-01-j1.31013019353729665006e-01
  -1.96468705747915528548e-01-j1.29925433051708671961e-01
  -2.02154477065053683749e-01-j1.28676968081735676463e-01
  -2.07856075035551729480e-01-j1.27266512400275061401e-01
  -2.13569717282821674997e-01-j1.25693028070483270309e-01
  -2.19291594402412942655e-01-j1.23955551457426343953e-01
  -2.25017871233354649352e-01-j1.22053193393830361480e-01
  -2.30744688103955042369e-01-j1.19985139317940470161e-01
  -2.36468162050756769421e-01-j1.17750649385130884417e-01
  -2.42184388009384771179e-01-j1.15349058554975403279e-01
  -2.47889439976093611806e-01-j1.12779776655564573096e-01
  -2.53579372138868996966e-01-j1.10042288426910911392e-01
  -2.59250219977003537597e-01-j1.07136153545361628714e-01
  -2.64898001328133014809e-01-j1.04061006630999416944e-01
  -2.70518717421779519849e-01-j1.00816557240078721880e-01
  -2.76108353878516343816e-01-j9.74025898446056609403e-02
  -2.81662881673944709426e-01-j9.38189638012425497493e-02
  -2.87178258066737301935e-01-j9.00656133117729851278e-02
  -2.92650427490086351145e-01-j8.61425473774327238319e-02
  -2.98075322405961962158e-01-j8.20498497494696471533e-02
  -3.03448864121675987437e-01-j7.77876788783628814183e-02
  -3.08766963568324781519e-01-j7.33562678641922621958e-02
  -3.14025522040762616882e-01-j6.87559244107041611649e-02
  -3.19220431898862955222e-01-j6.39870307856946485270e-02
  -3.24347577229891825823e-01-j5.90500437903776279058e-02
  -3.29402834471939243155e-01-j5.39454947404781823272e-02
  -3.34382072998423263144e-01-j4.86739894618468463272e-02
  -3.39281155663804900868e-01-j4.32362083034478345001e-02
  -3.44095939310749332485e-01-j3.76329061706491829753e-02
  -3.48822275239066059704e-01-j3.18649125817832487573e-02
  -3.53456009636893442316e-01-j2.59331317510293098139e-02
  -3.57992983974694645166e-01-j1.98385427007072845385e-02
  -3.62429035362758944494e-01-j1.35821994061611148186e-02
  -3.66759996873030347242e-01-j7.16523097643784884214e-03
  -3.70981697826210266022e-01-j5.88841874065000603355e-04
  -3.75089964045234092183e-01+j6.14568782274298175405e-03
  -3.79080618076347075629e-01+j1.30370021120315808527e-02
  -3.82949479379165180770e-01+j2.00836687107399380903e-02
  -3.86692364487264739203e-01+j2.72841786444997617955e-02
  -3.90305087141005757623e-01+j3.46369457809997532971e-02
  -3.93783458394465490926e-01+j4.21403063032793206988e-02
  -3.97123286698545074902e-01+j4.97925181192305083000e-02
  -4.00320377962496198876e-01+j5.75917602035571907226e-02
  -4.03370535596318358085e-01+j6.55361318683611998592e-02
  -4.06269560536684504193e-01+j7.36236519584832077578e-02
  -4.09013251259276566785e-01+j8.18522579676657507930e-02
  -4.11597403780642245863e-01+j9.02198050715633248497e-02
  -4.14017811652923284349e-01+j9.87240650735694835749e-02
  -4.16270265955081764098e-01+j1.07362725259391236787e-01
  -4.18350555284497549469e-01+j1.16133387156254291872e-01
  -4.20254465753109263115e-01+j1.25033565192601614502e-01
  -4.21977780992574547092e-01+j1.34060685254098588270e-01
  -4.23516282173239555497e-01+j1.43212083131748518783e-01
  -4.24865748042029256482e-01+j1.52485002857903145790e-01
  -4.26021954984750372830e-01+j1.61876594925935174407e-01
  -4.26980677118640572498e-01+j1.71383914389361485808e-01
  -4.27737686421412244275e-01+j1.81003918836192684294e-01
  -4.28288752903431824137e-01+j1.90733466234331766609e-01
  -4.28629644830126610433e-01+j2.00569312643865738099e-01
  -4.28756129002153152374e-01+j2.10508109792164499474e-01
  -4.28663971101351903847e-01+j2.20546402507754646383e-01
  -4.28348936111010769601e-01+j2.30680626009043016067e-01
  -4.27806788819491246034e-01+j2.40907103044066067676e-01
  -4.27033294416829245499e-01+j2.51222040877587371455e-01
  -4.26024219194504949471e-01+j2.61621528122019941787e-01
  -4.24775331359185881475e-01+j2.72101531408851848859e-01
  -4.23282401971882604741e-01+j2.82657891897480251231e-01
  -4.21541206024636683214e-01+j2.93286321618615286599e-01
  -4.19547523667542110459e-01+j3.03982399649726120483e-01
  -4.17297141599639154208e-01+j3.14741568120349091142e-01
  -4.14785854637973072645e-01+j3.25559128045469492463e-01
  -4.12009467479890867381e-01+j3.36430234985644560641e-01
  -4.08963796674467250369e-01+j3.47349894533037495403e-01
  -4.05644672819803486785e-01+j3.58312957623106609351e-01
  -4.02047943003781160787e-01+j3.69314115672336351626e-01
  -3.98169473506789772799e-01+j3.80347895543103664551e-01
  -3.94005152785837031715e-01+j3.91408654337590367067e-01
  -3.89550894760394561533e-01+j4.02490574023502245549e-01
  -3.84802642421302742992e-01+j4.13587655895387096283e-01
  -3.79756371785023361110e-01+j4.24693714876373473732e-01
  -3.74408096216506780518e-01+j4.35802373666394682328e-01
  -3.68753871144953504491e-01+j4.46907056744245079205e-01
  -3.62789799197711926304e-01+j4.58000984232280472508e-01
  -3.56512035778555280707e-01+j4.69077165634138537609e-01
  -3.49916795117541368221e-01+j4.80128393457590063598e-01
</dep>
<dep S[1,2] frequency>
  +7.59826003777859582122e-01-j6.26414306771101103699e-01
  +7.48319621503334642121e-01-j6.39006970794604001185e-01
  +7.36588301417690050066e-01-j6.51382121953638870693e-01
  +7.24636110321943083257e-01-j6.63535574178626630371e-01
  +7.12467190034882236205e-01-j6.75463215320920573603e-01
  +7.00085755922432162457e-01-j6.87161008224578262471e-01
  +6.87496095425796704959e-01-j6.98624991756180202529e-01
  +6.74702566589766128402e-01-j7.09851281793134503140e-01
  +6.61709596592672810722e-01-j7.20836072171051722712e-01
  +6.48521680279451340212e-01-j7.31575635590759665305e-01
  +6.35143378699313920777e-01-j7.42066324485672001998e-01
  +6.21579317649541107649e-01-j7.52304571850251679876e-01
  +6.07834186226886230564e-01-j7.62286892030390905717e-01
  +5.93912735388102297485e-01-j7.72009881476605430706e-01
  +5.79819776521065310959e-01-j7.81470219461008364092e-01
  +5.65560180027980474726e-01-j7.90664668759102795548e-01
  +5.51138873922094485458e-01-j7.99590076297492791113e-01
  +5.36560842439368856915e-01-j8.08243373768699480131e-01
  +5.21831124666468304518e-01-j8.16621578214316579114e-01
  +5.06954813186457409202e-01-j8.24721792577837287119e-01
  +4.91937052743495584206e-01-j8.32541206228520236365e-01
  +4.76783038927838798138e-01-j8.40077095457755218533e-01
  +4.61498016882355310830e-01-j8.47326823949449026152e-01
  +4.46087280031765620603e-01-j8.54287843226004817154e-01
  +4.30556168835737107514e-01-j8.60957693071561558362e-01
  +4.14910069566917616424e-01-j8.67334001934189746663e-01
  +3.99154413114951978070e-01-j8.73414487308843301427e-01
  +3.83294673817437647756e-01-j8.79196956102889393136e-01
  +3.67336368318749384443e-01-j8.84679304986128567379e-01
  +3.51285054457576406683e-01-j8.89859520727275254970e-01
  +3.35146330183965057703e-01-j8.94735680518920828419e-01
  +3.18925832506577300318e-01-j8.99305952293058652458e-01
  +3.02629236470824070082e-01-j9.03568595029333954116e-01
  +2.86262254168447638492e-01-j9.07521959058206539872e-01
  +2.69830633779053807864e-01-j9.11164486361300762773e-01
  +2.53340158644027479973e-01-j9.14494710871260885199e-01
  +2.36796646373167579691e-01-j9.17511258773488047602e-01
  +2.20205947984319222455e-01-j9.20212848812203332294e-01
  +2.03573947076171629655e-01-j9.22598292603315273119e-01
  +1.86906559034318908719e-01-j9.24666494956658535642e-01
  +1.70209730270589693069e-01-j9.26416454210189921348e-01
  +1.53489437495543890044e-01-j9.27847262578822773449e-01
  +1.36751687023962342771e-01-j9.28958106520604398604e-01
  +1.20002514113027286546e-01-j9.29748267123003180323e-01
  +1.03247982332807103356e-01-j9.30217120512160655643e-01
  +8.64941829685520191529e-02-j9.30364138287959385742e-01
  +6.97472344541810035379e-02-j9.30188887987871804164e-01
  +5.30132818362328769868e-02-j9.29691033582572323724e-01
  +3.62984962674478342515e-02-j9.28870336006376806637e-01
  +1.96090745289825701958e-02-j9.27726653725596372979e-01
  +2.95123858019134561320e-03-j9.26259943347992886764e-01
  -1.36687648653059899695e-02-j9.24470260276534339106e-01
  -3.02446647386198433360e-02-j9.22357759410740163375e-01
  -4.67701659911851364004e-02-j9.19922695898935716130e-01
  -6.32389499486510353599e-02-j9.17165425944800993818e-01
  -7.96446746448980641420e-02-j9.14086407671665712726e-01
  -9.59809751382079551218e-02-j9.10686202048023640820e-01
  -1.12241463811772024251e-01-j9.06965473877832994987e-01
  -1.28419730660931014077e-01-j9.02924992859189146088e-01
  -1.44509343569719311828e-01-j8.98565634715025152168e-01
  -1.60503848579495983495e-01-j8.93888382399536829404e-01
  -1.76396770152671439336e-01-j8.88894327384085469745e-01
  -1.92181611434756677292e-01-j8.83584671026363288604e-01
  -2.07851854518205120259e-01-j8.77960726026656423926e-01
  -2.23400960711786222834e-01-j8.72023917975085938181e-01
  -2.38822370819456591962e-01-j8.65775786993735141372e-01
  -2.54109505433034510435e-01-j8.59217989477585541991e-01
  -2.69255765243219924443e-01-j8.52352299938246349420e-01
  -2.84254531373866636823e-01-j8.45180612954454568708e-01
  -2.99099165744700745684e-01-j8.37704945233323616804e-01
  -3.13783011468053041337e-01-j8.29927437786362021122e-01
  -3.28299393285541585286e-01-j8.21850358224232580007e-01
  -3.42641618050994523070e-01-j8.13476103174240794402e-01
  -3.56802975266354904793e-01-j8.04807200824482538160e-01
  -3.70776737677694256945e-01-j7.95846313598567611791e-01
  -3.84556161938947094203e-01-j7.86596240964748005808e-01
  -3.98134489351427478532e-01-j7.77059922383234180643e-01
  -4.11504946687699935115e-01-j7.67240440395355771663e-01
  -4.24660747108895619828e-01-j7.57141023858136752445e-01
  -4.37595091185116580323e-01-j7.46765051327690332350e-01
  -4.50301168029144216476e-01-j7.36116054594683544288e-01
  -4.62772156554274227691e-01-j7.25197722374931075251e-01
  -4.75001226867728720826e-01-j7.14013904157917989046e-01
  -4.86981541811766005523e-01-j7.02568614215821174440e-01
