<Qucs Dataset 1.0.5>
<indep frequency 101>
  +4.00000000000000000000e+08
  +4.10000000000000000000e+08
  +4.20000000000000000000e+08
  +4.30000000000000000000e+08
  +4.40000000000000000000e+08
  +4.50000000000000000000e+08
  +4.60000000000000000000e+08
  +4.70000000000000000000e+08
  +4.80000000000000000000e+08
  +4.90000000000000000000e+08
  +5.00000000000000000000e+08
  +5.10000000000000000000e+08
  +5.20000000000000000000e+08
  +5.30000000000000000000e+08
  +5.40000000000000000000e+08
  +5.50000000000000000000e+08
  +5.60000000000000000000e+08
  +5.70000000000000000000e+08
  +5.80000000000000000000e+08
  +5.90000000000000000000e+08
  +6.00000000000000000000e+08
  +6.10000000000000000000e+08
  +6.20000000000000000000e+08
  +6.30000000000000000000e+08
  +6.40000000000000000000e+08
  +6.50000000000000000000e+08
  +6.60000000000000000000e+08
  +6.70000000000000000000e+08
  +6.80000000000000000000e+08
  +6.90000000000000000000e+08
  +7.00000000000000000000e+08
  +7.10000000000000000000e+08
  +7.20000000000000000000e+08
  +7.30000000000000000000e+08
  +7.40000000000000000000e+08
  +7.50000000000000000000e+08
  +7.60000000000000000000e+08
  +7.70000000000000000000e+08
  +7.80000000000000000000e+08
  +7.90000000000000000000e+08
  +8.00000000000000000000e+08
  +8.10000000000000000000e+08
  +8.20000000000000000000e+08
  +8.30000000000000000000e+08
  +8.40000000000000000000e+08
  +8.50000000000000000000e+08
  +8.60000000000000000000e+08
  +8.70000000000000000000e+08
  +8.80000000000000000000e+08
  +8.90000000000000000000e+08
  +9.00000000000000000000e+08
  +9.10000000000000000000e+08
  +9.20000000000000000000e+08
  +9.30000000000000000000e+08
  +9.40000000000000000000e+08
  +9.50000000000000000000e+08
  +9.60000000000000000000e+08
  +9.70000000000000000000e+08
  +9.80000000000000000000e+08
  +9.90000000000000000000e+08
  +1.00000000000000000000e+09
  +1.01000000000000000000e+09
  +1.02000000000000000000e+09
  +1.03000000000000000000e+09
  +1.04000000000000000000e+09
  +1.05000000000000000000e+09
  +1.06000000000000000000e+09
  +1.07000000000000000000e+09
  +1.08000000000000000000e+09
  +1.09000000000000000000e+09
  +1.10000000000000000000e+09
  +1.11000000000000000000e+09
  +1.12000000000000000000e+09
  +1.13000000000000000000e+09
  +1.14000000000000000000e+09
  +1.15000000000000000000e+09
  +1.16000000000000000000e+09
  +1.17000000000000000000e+09
  +1.18000000000000000000e+09
  +1.19000000000000000000e+09
  +1.20000000000000000000e+09
  +1.21000000000000000000e+09
  +1.22000000000000000000e+09
  +1.23000000000000000000e+09
  +1.24000000000000000000e+09
  +1.25000000000000000000e+09
  +1.26000000000000000000e+09
  +1.27000000000000000000e+09
  +1.28000000000000000000e+09
  +1.29000000000000000000e+09
  +1.30000000000000000000e+09
  +1.31000000000000000000e+09
  +1.32000000000000000000e+09
  +1.33000000000000000000e+09
  +1.34000000000000000000e+09
  +1.35000000000000000000e+09
  +1.36000000000000000000e+09
  +1.37000000000000000000e+09
  +1.38000000000000000000e+09
  +1.39000000000000000000e+09
  +1.40000000000000000000e+09
</indep>
<dep S11_dB frequency>
  -8.49288446624764503667e+00
  -8.25395627235237228092e+00
  -8.01958053540854542973e+00
  -7.78951990571740537916e+00
  -7.56355499338531966913e+00
  -7.34148298548886746318e+00
  -7.12311643942616168346e+00
  -6.90828223182068246189e+00
  -6.69682064553467881751e+00
  -6.48858458001631088763e+00
  -6.28343887244140653081e+00
  -6.08125971899213979555e+00
  -5.88193418719927141325e+00
  -5.68535981160916925603e+00
  -5.49144426615977288009e+00
  -5.30010510758918673702e+00
  -5.11126958498075989468e+00
  -4.92487451118635100045e+00
  -4.74086619237783146730e+00
  -4.55920041236505557691e+00
  -4.37984246859222903225e+00
  -4.20276725688608099318e+00
  -4.02795940207915581510e+00
  -3.85541343156747196019e+00
  -3.68513398867972474804e+00
  -3.51713608243022290978e+00
  -3.35144536979179630265e+00
  -3.18809846605327074087e+00
  -3.02714327810899597182e+00
  -2.86863935466137220942e+00
  -2.71265824629637108956e+00
  -2.55928386721572920237e+00
  -2.40861284908183570508e+00
  -2.26075487596285951142e+00
  -2.11583298777485406816e+00
  -1.97398383793490839189e+00
  -1.83535788920681786074e+00
  -1.70011952999805537878e+00
  -1.56844709172934138053e+00
  -1.44053274644255080439e+00
  -1.31658226265462241500e+00
  -1.19681459674128931603e+00
  -1.08146129699844273375e+00
  -9.70765698147283861985e-01
  -8.64981885595340727058e-01
  -7.64373411405777192229e-01
  -6.69211747810983359486e-01
  -5.79774469345027743117e-01
  -4.96343161319551307020e-01
  -4.19201060407950965025e-01
  -3.48630442415010732837e-01
  -2.84909782662328248115e-01
  -2.28310725456752766638e-01
  -1.79094910350040520397e-01
  -1.37510713748364821196e-01
  -1.03789974212271166043e-01
  -7.81447777764207873741e-02
  -6.07643851052895936360e-02
  -5.18123846495544618240e-02
  -5.14241546932801552039e-02
  -5.97047120043531082123e-02
  -7.67270157040826905614e-02
  -1.02530782226379013622e-01
  -1.37121851401260375081e-01
  -1.80472125585900811107e-01
  -2.32520084389638226341e-01
  -2.93171858017801212348e-01
  -3.62302823726279921157e-01
  -4.39759673382020876975e-01
  -5.25362886534310291609e-01
  -6.18909533346468143655e-01
  -7.20176325561324937041e-01
  -8.28922831431848750050e-01
  -9.44894772023982865150e-01
  -1.06782732105296518377e+00
  -1.19744833784365956042e+00
  -1.33348147241236247851e+00
  -1.47564909232671737094e+00
  -1.62367499221608668769e+00
  -1.77728685796031804500e+00
  -1.93621846816804610292e+00
  -2.10021162517970072514e+00
  -2.26901781623191345361e+00
  -2.44239961245459147321e+00
  -2.62013181899572122902e+00
  -2.80200239382113691633e+00
  -2.98781315571753669502e+00
  -3.17738030387822067979e+00
  -3.37053477233720100159e+00
  -3.56712244261216593344e+00
  -3.76700423738961731601e+00
  -3.97005611709595518377e+00
  -4.17616899988764256335e+00
  -4.38524862408576776573e+00
  -4.59721537047780781648e+00
  -4.81200406029446980938e+00
  -5.02956374311030174340e+00
  -5.24985748745900693280e+00
  -5.47286218563884840904e+00
  -5.69856838303200596840e+00
  -5.92698014129415273743e+00
</dep>
<dep S21_dB frequency>
  -6.82376413579933283060e-01
  -7.23616648064118739292e-01
  -7.66745049954499213740e-01
  -8.11852335358683951938e-01
  -8.59035545773484954246e-01
  -9.08398544035960320286e-01
  -9.60052556101006260292e-01
  -1.01411676348549462112e+00
  -1.07071895181309773015e+00
  -1.12999622157571733005e+00
  -1.19209576800941952079e+00
  -1.25717573788516556732e+00
  -1.32540617205830191239e+00
  -1.39697004383239153924e+00
  -1.47206440460631204914e+00
  -1.55090164992734513838e+00
  -1.63371092101934145546e+00
  -1.72073965915333904064e+00
  -1.81225533295890306462e+00
  -1.90854736203217445478e+00
  -2.00992926410745420540e+00
  -2.11674105777732712852e+00
  -2.22935195847320333229e+00
  -2.34816341240994930217e+00
  -2.47361252178821811043e+00
  -2.60617592516743545872e+00
  -2.74637421013789317925e+00
  -2.89477695197811879524e+00
  -3.05200849287331976711e+00
  -3.21875460281712211241e+00
  -3.39577019730789020358e+00
  -3.58388833080868662861e+00
  -3.78403074199778588493e+00
  -3.99722030170680397987e+00
  -4.22459581358545133156e+00
  -4.46742975009046450197e+00
  -4.72714968548421232697e+00
  -5.00536443219347582101e+00
  -5.30389622520645964698e+00
  -5.62482077323497797749e+00
  -5.97051766923546978205e+00
  -6.34373462610347971236e+00
  -6.74767043374837882652e+00
  -7.18608367732758157587e+00
  -7.66343753909733571561e+00
  -8.18509615695887760012e+00
  -8.75759631840112362511e+00
  -9.38903208412891743251e+00
  -1.00896137476923186682e+01
  -1.08725052989861694641e+01
  -1.17551251270767327384e+01
  -1.27612553935837969021e+01
  -1.39246488527777945166e+01
  -1.52956206016139653059e+01
  -1.69541827476026973898e+01
  -1.90394772155453004814e+01
  -2.18279867672449121585e+01
  -2.60076172161096543789e+01
  -3.43813806607212626432e+01
  -3.74662063519482160245e+01
  -2.70418403176668888932e+01
  -2.23949706816653772989e+01
  -1.93854539060074309020e+01
  -1.71625703809353495899e+01
  -1.54050360857946788684e+01
  -1.39565050497547566977e+01
  -1.27289957141520204686e+01
  -1.16680246527748838758e+01
  -1.07374635376616378579e+01
  -9.91208494710151200024e+00
  -9.17354270594652376758e+00
  -8.50804799230480135463e+00
  -7.90494987014767147571e+00
  -7.35582875455374995965e+00
  -6.85389573353370806785e+00
  -6.39358203065940067233e+00
  -5.97025090224780008441e+00
  -5.57999077450087987984e+00
  -5.21946369965430356785e+00
  -4.88579233793935951979e+00
  -4.57647430460940807251e+00
  -4.28931629642781064859e+00
  -4.02238273887448904986e+00
  -3.77395524393706516264e+00
  -3.54250021977886930813e+00
  -3.32664270030498521180e+00
  -3.12514497305249250303e+00
  -2.93688894747912954131e+00
  -2.76086146816428179562e+00
  -2.59614196903045968412e+00
  -2.44189200602701506071e+00
  -2.29734631095610231100e+00
  -2.16180508815585792348e+00
  -2.03462733557767272430e+00
  -1.91522501740668116277e+00
  -1.80305795039287364290e+00
  -1.69762929312296151352e+00
  -1.59848154851362944662e+00
  -1.50519300628548657883e+00
  -1.41737456515937387813e+00
  -1.33466688481155082435e+00
</dep>
<dep S[1,1] frequency>
  -2.97280670442539418641e-01-j2.30455156183047932261e-01
  -3.11284840206564716869e-01-j2.29323077870236813336e-01
  -3.25511073166575404247e-01-j2.27637664625602614832e-01
  -3.39946391054011032296e-01-j2.25379913900894651713e-01
  -3.54576863993232294092e-01-j2.22530423750715133924e-01
  -3.69387534544471540787e-01-j2.19069395968042784917e-01
  -3.84362335831405055320e-01-j2.14976643205954720539e-01
  -3.99484003446382407443e-01-j2.10231600796435519340e-01
  -4.14733980842927840715e-01-j2.04813344072728165113e-01
  -4.30092317951197788961e-01-j1.98700612107286483932e-01
  -4.45537562789839525212e-01-j1.91871838893504120804e-01
  -4.61046645899601315044e-01-j1.84305193126347910404e-01
  -4.76594757493116083502e-01-j1.75978627874927517905e-01
  -4.92155217304868608519e-01-j1.66869941588736803162e-01
  -5.07699337239335357630e-01-j1.56956852038176469799e-01
  -5.23196277058088354828e-01-j1.46217084957976084514e-01
  -5.38612893523221170078e-01-j1.34628479337399242777e-01
  -5.53913583630237238431e-01-j1.22169111481096076544e-01
  -5.69060122824621261728e-01-j1.08817440145292043674e-01
  -5.84011499409079704037e-01-j9.45524752307565774512e-02
  -5.98723746719743932232e-01-j7.93539726798223876703e-02
  -6.13149775086441639615e-01-j6.32026583710903477886e-02
  -6.27239206101323332199e-01-j4.60804839212974465257e-02
  -6.40938212308080790258e-01-j2.79709173755658610516e-02
  -6.54189366096144087059e-01-j8.85927177803388921085e-03
  -6.66931502344281890160e-01+j1.12669254553864929547e-02
  -6.79099600207305753585e-01+j3.24175196157265171903e-02
  -6.90624690375521876895e-01+j5.45992697930749795732e-02
  -7.01433795152056505096e-01+j7.78153420172779247688e-02
  -7.11449909774197197798e-01+j1.02064753156333509754e-01
  -7.20592034529284108935e-01+j1.27341765195176120917e-01
  -7.28775268350835059294e-01+j1.53635230711800518932e-01
  -7.35910975681248968883e-01+j1.80927891884196584416e-01
  -7.41907039393546074990e-01+j2.09195637239668413843e-01
  -7.46668213399295011001e-01+j2.38406722631679474089e-01
  -7.50096589137761005084e-01+j2.68520965621971363646e-01
  -7.52092190327924847715e-01+j2.99488925565071451018e-01
  -7.52553710037123235743e-01+j3.31251085223061125795e-01
  -7.51379403128359268926e-01+j3.63737053634363260990e-01
  -7.48468145332191525654e-01+j3.96864814135096888315e-01
  -7.43720667384947353717e-01+j4.30540045750369249067e-01
  -7.37040968728014833644e-01+j4.64655550443946185890e-01
  -7.28337910043576286512e-01+j4.99090822683258494852e-01
  -7.17526977326166992555e-01+j5.33711801122902618211e-01
  -7.04532202242471372600e-01+j5.68370844551816412071e-01
  -6.89288214295664003473e-01+j6.02906975155156898971e-01
  -6.71742389990392263499e-01+j6.37146431149985370546e-01
  -6.51857053142091857900e-01+j6.70903567505778730684e-01
  -6.29611669204658497279e-01+j7.03982137345334435530e-01
  -6.05004965685122186869e-01+j7.36176977429835455169e-01
  -5.78056901206829842899e-01+j7.67276108718742633208e-01
  -5.48810398522508013919e-01+j7.97063247443946853998e-01
  -5.17332752767079462330e-01+j8.25320703816079914716e-01
  -4.83716626442617647630e-01+j8.51832625081722749627e-01
  -4.48080547865371103811e-01+j8.76388518202253385958e-01
  -4.10568840632112574962e-01+j8.98786966266504561140e-01
  -3.71350928251588552342e-01+j9.18839433455503229453e-01
  -3.30619980126284462862e-01+j9.36374037641238055052e-01
  -2.88590891711843378076e-01+j9.51239159174114612405e-01
  -2.45497621539890242826e-01+j9.63306750519374421771e-01
  -2.01589939009932828107e-01+j9.72475215150299443501e-01
  -1.57129667253799176763e-01+j9.78671735924947716612e-01
  -1.12386532640413219775e-01+j9.81853952803081742040e-01
  -6.76337544184047179119e-02+j9.82010916215701801235e-01
  -2.31435227447937888479e-02+j9.79163274026073615630e-01
  +2.08174803520104478860e-02+j9.73362684636818853434e-01
  +6.39923652221568162179e-02+j9.64690483911121554605e-01
  +1.06137983646486591671e-01+j9.53255666646439348000e-01
  +1.47028421458511249220e-01+j9.39192272042889131356e-01
  +1.86457938771053877147e-01+j9.22656285075821869235e-01
  +2.24243291111329623444e-01+j9.03822180668102159729e-01
  +2.60225395750807497741e-01+j8.82879244529909290584e-01
  +2.94270337966797468354e-01+j8.60027803668912405044e-01
  +3.26269739905445999018e-01+j8.35475491671700765117e-01
  +3.56140538565666076032e-01+j8.09433660195520432445e-01
  +3.83824238142305984578e-01+j7.82114030260354087254e-01
  +4.09285715046394105165e-01+j7.53725656575854885411e-01
  +4.32511661355675924856e-01+j7.24472256894725052945e-01
  +4.53508754654011358998e-01+j6.94549937677871875863e-01
  +4.72301639915264359626e-01+j6.64145328327024331294e-01
  +4.88930803185457452109e-01+j6.33434119701213438347e-01
  +5.03450408300031626574e-01+j6.02579989069896959641e-01
  +5.15926157703651133701e-01+j5.71733883255165276083e-01
  +5.26433227488667943028e-01+j5.41033624418613356966e-01
  +5.35054315767420130001e-01+j5.10603798509594586363e-01
  +5.41877833015074750200e-01+j4.80555884441450642530e-01
  +5.46996253472771476467e-01+j4.50988582165296081339e-01
  +5.50504638343359720132e-01+j4.21988299512216946674e-01
  +5.52499334471428182880e-01+j3.93629760536971018414e-01
  +5.53076846498265939367e-01+j3.65976701723974895408e-01
  +5.52332876064852817954e-01+j3.39082626471143233626e-01
  +5.50361518392313953107e-01+j3.12991592473170487931e-01
  +5.47254604357416574167e-01+j2.87739010770423353502e-01
  +5.43101174843799494596e-01+j2.63352439157807871606e-01
  +5.37987073529285431128e-01+j2.39852356256047699601e-01
  +5.31994644215320722225e-01+j2.17252905774410920436e-01
  +5.25202519179599258692e-01+j1.95562603311222715785e-01
  +5.17685485718018201240e-01+j1.74785000444748067627e-01
  +5.09514418936217183820e-01+j1.54919302878290643388e-01
  +5.00756269871651893411e-01+j1.35960941048374778228e-01
  +4.91474099108733852859e-01+j1.17902092919425924289e-01
</dep>
<dep S[1,2] frequency>
  +5.68284157406370393772e-01-j7.29144755058800497771e-01
  +5.47644380126098173633e-01-j7.39329290821262419264e-01
  +5.26632268043097262478e-01-j7.48876280216278167323e-01
  +5.05261755327792716486e-01-j7.57764776811539975121e-01
  +4.83547751706658091031e-01-j7.65973442723646869013e-01
  +4.61506218413913316123e-01-j7.73480552004656263243e-01
  +4.39154250059785478122e-01-j7.80263998017442395039e-01
  +4.16510162721900445426e-01-j7.86301305510829884327e-01
  +3.93593588549860762260e-01-j7.91569648201082332051e-01
  +3.70425577146997420108e-01-j7.96045872771859008843e-01
  +3.47028703955573558648e-01-j7.99706530320920649935e-01
  +3.23427185819820606216e-01-j8.02527916408774411039e-01
  +2.99647003832127667433e-01-j8.04486121002353726794e-01
  +2.75716033478148880853e-01-j8.05557089755538524578e-01
  +2.51664181982605483778e-01-j8.05716698227169181301e-01
  +2.27523532614794216089e-01-j8.04940840805236534905e-01
  +2.03328495536221676154e-01-j8.03205536281162424395e-01
  +1.79115964557047147032e-01-j8.00487052198086690424e-01
  +1.54925478906900893072e-01-j7.96762050277873057347e-01
  +1.30799388812929628934e-01-j7.92007755408318803170e-01
  +1.06783023306573104927e-01-j7.86202150837859159438e-01
  +8.29248582438101289327e-02-j7.79324202371419527680e-01
  +5.92766820143867598225e-02-j7.71354114476916263854e-01
  +3.58937558276401225132e-02-j7.62273621283630409273e-01
  +1.28349647903497985496e-02-j7.52066315464464674179e-01
  -9.83704476797966562152e-03-j7.40718017923827631854e-01
  -3.20557471162603024872e-02-j7.28217191037552113997e-01
  -5.37506444192152113559e-02-j7.14555397882903564621e-01
  -7.48472068563037357114e-02-j6.99727809423489000018e-01
  -9.52668539884879289614e-02-j6.83733760939942425416e-01
  -1.14926986923539711793e-01-j6.66577358083665805211e-01
  -1.33741081965741359650e-01-j6.48268131736652541974e-01
  -1.51618857536480161619e-01-j6.28821739343894736685e-01
  -1.68466527158361356609e-01-j6.08260708506765057635e-01
  -1.84187152130154851992e-01-j5.86615216352188162396e-01
  -1.98681108087771757242e-01-j5.63923895499819805011e-01
  -2.11846679833081419364e-01-j5.40234654330053798432e-01
  -2.23580798484479176258e-01-j5.15605495724949847158e-01
  -2.33779934011425133411e-01-j4.90105314558247739942e-01
  -2.42341154399009661713e-01-j4.63814650035866915534e-01
  -2.49163359884465890337e-01-j4.36826364669442634980e-01
  -2.54148696760531644934e-01-j4.09246217394398426048e-01
  -2.57204150021190569575e-01-j3.81193294375499092119e-01
  -2.58243307549334721873e-01-j3.52800257696652519446e-01
  -2.57188280598914964514e-01-j3.24213369789695227130e-01
  -2.53971756088046063393e-01-j2.95592250551019064542e-01
  -2.48539145899317720501e-01-j2.67109325086857196663e-01
  -2.40850787331164190030e-01-j2.38948923376086530546e-01
  -2.30884137574451669961e-01-j2.11305999254881332616e-01
  -2.18635894283108977998e-01-j1.84384445319323131418e-01
  -2.04123964800428076005e-01-j1.58394992755185065603e-01
  -1.87389199342579887420e-01-j1.33552700655330675028e-01
  -1.68496799429352056565e-01-j1.10074057706691860736e-01
  -1.47537313054637575505e-01-j8.81737395279526547931e-02
  -1.24627133326757302823e-01-j6.80610863870473037363e-02
  -9.99084281360048120924e-02-j4.99363871861608077385e-02
  -7.35484449953308361270e-02-j3.39870748957998083939e-02
  -4.57381572395112595553e-02-j2.03839543558256459932e-02
  -1.66902444102783459323e-02-j9.27759388863182501983e-03
  +1.33635704867086351627e-02-j7.95016064012183743329e-04
  +4.41757729472556856520e-02+j4.96318079227904464940e-03
  +7.54868138528059645642e-02+j7.92515057319631219257e-03
  +1.07029259705472459818e-01+j8.04947670515507307520e-03
  +1.38532202716313418422e-01+j5.32612511547601429757e-03
  +1.69725782498501676088e-01-j2.23369208403598071494e-04
  +2.00345664817051322126e-01-j8.54648951317067175071e-03
  +2.30137325542231707676e-01-j1.95610707590652445342e-02
  +2.58859999395841366976e-01-j3.31573185459056382629e-02
  +2.86290172257884223406e-01-j4.92004240433139422572e-02
  +3.12224521068382665501e-01-j6.75336630154048794816e-02
  +3.36482234628026843914e-01-j8.79818520441946194666e-02
  +3.58906679583906595976e-01-j1.10355028083684941764e-01
  +3.79366406337215023026e-01-j1.34452218341521129163e-01
  +3.97755517542522862851e-01-j1.60065175387113733940e-01
  +4.13993445718098374009e-01-j1.86981966046912917445e-01
  +4.28024205205512042749e-01-j2.14990320496558612318e-01
  +4.39815196796318585992e-01-j2.43880668315133886104e-01
  +4.49355650778986759342e-01-j2.73448809509673651519e-01
  +4.56654796364606818670e-01-j3.03498189224331305081e-01
  +4.61739843146976913779e-01-j3.33841763878253205977e-01
  +4.64653854350818074082e-01-j3.64303463015489992216e-01
  +4.65453583104943280357e-01-j3.94719264713885853446e-01
  +4.64207332807805128638e-01-j4.24937912800232520105e-01
  +4.60992891701538565208e-01-j4.54821311415823104074e-01
