# HZ S RI R 50
400000000 0.131060896 -0.008794212 0.014958156 0.000651893 0 0 0 0
410000000 0.128283504 0.003426799 0.015836178 0.00091161 0 0 0 0
420000000 0.123375952 0.010385618 0.017449034 0.000913022 0 0 0 0
430000000 0.12212712 0.020535408 0.017976754 1.3005e-05 0 0 0 0
440000000 0.117609408 0.030823318 0.019229758 0.000500018 0 0 0 0
450000000 0.109246064 0.039373112 0.020656828 -0.00030459 0 0 0 0
460000000 0.103297536 0.048461056 0.021917326 -0.001402917 0 0 0 0
470000000 0.090778656 0.0598234 0.023267034 -0.001099339 0 0 0 0
480000000 0.083143552 0.067828144 0.023902542 -0.002466689 0 0 0 0
490000000 0.07413516 0.075438792 0.024944508 -0.003530646 0 0 0 0
500000000 0.063438476 0.085472536 0.025485744 -0.004271584 0 0 0 0
510000000 0.051938044 0.09550812 0.02511638 -0.003320006 0 0 0 0
520000000 0.040338292 0.108742592 0.028275724 -0.001223175 0 0 0 0
530000000 0.029838492 0.117901208 0.032780848 -0.001598598 0 0 0 0
540000000 0.0272568 0.126698168 0.0385801 -0.004549991 0 0 0 0
550000000 0.029820566 0.13502448 0.041514644 -0.01054276 0 0 0 0
560000000 0.033791056 0.132192536 0.041540764 -0.01435373 0 0 0 0
570000000 0.036342604 0.121134008 0.043239288 -0.015464584 0 0 0 0
580000000 0.030189974 0.101391864 0.046377152 -0.01952713 0 0 0 0
590000000 0.019267194 0.086256464 0.051350912 -0.023448498 0 0 0 0
600000000 0.006177467 0.0716578 0.054138132 -0.028997648 0 0 0 0
610000000 -0.001691681 0.059861752 0.057968148 -0.037401444 0 0 0 0
620000000 -0.010377134 0.04627894 0.060731912 -0.047892324 0 0 0 0
630000000 -0.021535754 0.030167792 0.059566208 -0.0601637 0 0 0 0
640000000 -0.029990068 0.01560872 0.056093416 -0.073490392 0 0 0 0
650000000 -0.036489928 -0.002682105 0.050027752 -0.083430232 0 0 0 0
660000000 -0.041999672 -0.018607548 0.04059516 -0.097295744 0 0 0 0
670000000 -0.047040576 -0.033828588 0.028603562 -0.107536456 0 0 0 0
680000000 -0.04917256 -0.054061764 0.008968648 -0.116065824 0 0 0 0
690000000 -0.050336728 -0.070155984 -0.010055956 -0.113644608 0 0 0 0
700000000 -0.049265756 -0.089959888 -0.024496026 -0.109232536 0 0 0 0
710000000 -0.046208844 -0.103338456 -0.038710424 -0.100890344 0 0 0 0
720000000 -0.041750156 -0.117351272 -0.047046924 -0.089813304 0 0 0 0
730000000 -0.034104916 -0.134649552 -0.050315724 -0.077495528 0 0 0 0
740000000 -0.02701192 -0.147876864 -0.049250664 -0.07009224 0 0 0 0
750000000 -0.016579746 -0.161902272 -0.046208568 -0.066418888 0 0 0 0
760000000 -0.00523367 -0.175208528 -0.043409088 -0.064936204 0 0 0 0
770000000 0.007306367 -0.186294064 -0.043329636 -0.06882068 0 0 0 0
780000000 0.022842216 -0.198403888 -0.047285968 -0.071591728 0 0 0 0
790000000 0.03516144 -0.207430064 -0.051223344 -0.076969112 0 0 0 0
800000000 0.05206068 -0.215161536 -0.06086618 -0.078182752 0 0 0 0
810000000 0.070253712 -0.220284688 -0.067537816 -0.075639176 0 0 0 0
820000000 0.088832976 -0.22351768 -0.076674608 -0.074969792 0 0 0 0
830000000 0.109203744 -0.225218016 -0.082245976 -0.073044832 0 0 0 0
840000000 0.12488744 -0.221821872 -0.088345944 -0.072493168 0 0 0 0
850000000 0.14713072 -0.221981376 -0.096944376 -0.074574232 0 0 0 0
860000000 0.164579056 -0.217643712 -0.110372376 -0.072345408 0 0 0 0
870000000 0.1811752 -0.211313376 -0.126347824 -0.06730832 0 0 0 0
880000000 0.199516832 -0.200510304 -0.139365168 -0.059458668 0 0 0 0
890000000 0.216544208 -0.196645312 -0.153544944 -0.0480926 0 0 0 0
900000000 0.229147152 -0.18380824 -0.1656728 -0.026196726 0 0 0 0
910000000 0.247709696 -0.172920528 -0.166304592 -0.0090714 0 0 0 0
920000000 0.258397216 -0.158315664 -0.171620704 0.004474167 0 0 0 0
930000000 0.265525312 -0.140338448 -0.175863536 0.023261462 0 0 0 0
940000000 0.279823776 -0.122428624 -0.174171168 0.040045476 0 0 0 0
950000000 0.289068 -0.105894296 -0.174710688 0.052673292 0 0 0 0
960000000 0.297363008 -0.086845352 -0.180550928 0.07127924 0 0 0 0
970000000 0.30284672 -0.066313608 -0.182413344 0.101743488 0 0 0 0
980000000 0.306128544 -0.045109872 -0.16652664 0.127730312 0 0 0 0
990000000 0.30838944 -0.030936034 -0.14740664 0.151615504 0 0 0 0
1000000000 0.310142944 -0.00505607 -0.126429912 0.169163056 0 0 0 0
1010000000 0.304442656 0.02042575 -0.098505672 0.183857872 0 0 0 0
1020000000 0.297130208 0.036404592 -0.064665556 0.18476584 0 0 0 0
1030000000 0.289944128 0.065206708 -0.04954016 0.179999472 0 0 0 0
1040000000 0.28064272 0.086221928 -0.032888688 0.176336944 0 0 0 0
1050000000 0.276516608 0.113691024 -0.01225666 0.17462832 0 0 0 0
1060000000 0.256708624 0.129766968 0.003153663 0.161932256 0 0 0 0
1070000000 0.2364208 0.15120704 0.011767612 0.152752224 0 0 0 0
1080000000 0.215369152 0.168016112 0.019300186 0.147739056 0 0 0 0
1090000000 0.1856848 0.183287584 0.0303167 0.141646464 0 0 0 0
1100000000 0.163671312 0.195568848 0.039739556 0.135882848 0 0 0 0
1110000000 0.140384144 0.207985024 0.045130888 0.125250328 0 0 0 0
1120000000 0.111470568 0.21067408 0.047867768 0.110201256 0 0 0 0
1130000000 0.077709184 0.209993904 0.046877436 0.102364064 0 0 0 0
1140000000 0.044232536 0.203168448 0.047988908 0.101011384 0 0 0 0
1150000000 0.023131144 0.206670112 0.049310276 0.096573312 0 0 0 0
1160000000 -0.006628716 0.197746944 0.0537153 0.095437512 0 0 0 0
1170000000 -0.0391836 0.180473248 0.060577332 0.089678224 0 0 0 0
1180000000 -0.066575452 0.167866624 0.060948168 0.084138576 0 0 0 0
1190000000 -0.086556912 0.152616096 0.065031112 0.078992816 0 0 0 0
1200000000 -0.112619512 0.120767392 0.066295632 0.072081904 0 0 0 0
1210000000 -0.127778512 0.096808136 0.06394106 0.06457784 0 0 0 0
1220000000 -0.142653888 0.07113276 0.064205892 0.057626664 0 0 0 0
1230000000 -0.147055872 0.045742016 0.0655926 0.060557436 0 0 0 0
1240000000 -0.164233536 0.004522984 0.0662712 0.054946512 0 0 0 0
1250000000 -0.165984704 -0.020722996 0.065468876 0.049277708 0 0 0 0
1260000000 -0.171259232 -0.046143196 0.066575148 0.0450175 0 0 0 0
1270000000 -0.16364528 -0.081082848 0.06348572 0.041913404 0 0 0 0
1280000000 -0.152642624 -0.121140664 0.063267388 0.042939204 0 0 0 0
1290000000 -0.148737552 -0.133489968 0.064114356 0.041687324 0 0 0 0
1300000000 -0.13427248 -0.169144592 0.060921332 0.036750488 0 0 0 0
1310000000 -0.12033348 -0.195745632 0.061884524 0.037974284 0 0 0 0
1320000000 -0.097046824 -0.224410336 0.058818968 0.034536796 0 0 0 0
1330000000 -0.074417536 -0.250115936 0.054982648 0.034604576 0 0 0 0
1340000000 -0.064846756 -0.273509152 0.05207186 0.033401602 0 0 0 0
1350000000 -0.025333896 -0.295158016 0.053985512 0.031037728 0 0 0 0
1360000000 -0.00238926 -0.290817472 0.053409352 0.034562228 0 0 0 0
1370000000 0.024326968 -0.304577824 0.05034226 0.036398984 0 0 0 0
1380000000 0.06465932 -0.315006016 0.045351464 0.031459716 0 0 0 0
1390000000 0.0879226 -0.322724416 0.042083028 0.028951116 0 0 0 0
1400000000 0.120897712 -0.324813344 0.042502908 0.029139128 0 0 0 0
