# HZ S RI R 50
400000000 0.58819744 -0.772166528
410000000 0.567004544 -0.784394496
420000000 0.544837056 -0.801191296
430000000 0.51892208 -0.81054912
440000000 0.49781776 -0.816995328
450000000 0.481568928 -0.828923456
460000000 0.463425792 -0.847430272
470000000 0.439452992 -0.86590144
480000000 0.409304032 -0.887364352
490000000 0.36982448 -0.907495936
500000000 0.3261208 -0.921355136
510000000 0.28350928 -0.928910144
520000000 0.240091088 -0.930247744
530000000 0.18962032 -0.915340672
540000000 0.156042128 -0.890726848
550000000 0.13535536 -0.875861888
560000000 0.12690252 -0.863087232
570000000 0.11470832 -0.864884544
580000000 0.090473824 -0.860248576
590000000 0.071862672 -0.847967872
600000000 0.055737444 -0.849138368
610000000 0.043733348 -0.85364832
620000000 0.02400608 -0.856252928
630000000 -0.001085654 -0.861415616
640000000 -0.032913368 -0.859233472
650000000 -0.060643408 -0.8444016
660000000 -0.086149424 -0.842900928
670000000 -0.103478464 -0.837328064
680000000 -0.124327928 -0.829436352
690000000 -0.14820824 -0.822242496
700000000 -0.173043936 -0.817883264
710000000 -0.198263744 -0.803416256
720000000 -0.221912064 -0.787180608
730000000 -0.241024992 -0.7685872
740000000 -0.26149168 -0.749973952
750000000 -0.278579808 -0.735640256
760000000 -0.294792064 -0.722309632
770000000 -0.318023968 -0.713136128
780000000 -0.344259904 -0.699501696
790000000 -0.365471232 -0.68103584
800000000 -0.388451296 -0.662408576
810000000 -0.411771168 -0.638362816
820000000 -0.4332312 -0.61704928
830000000 -0.463275296 -0.592793792
840000000 -0.478526112 -0.54018208
850000000 -0.493058112 -0.505980192
860000000 -0.505792032 -0.476053312
870000000 -0.516274944 -0.431785312
880000000 -0.50605536 -0.393251744
890000000 -0.52433808 -0.334609152
900000000 -0.515567488 -0.266076528
910000000 -0.500488992 -0.216118928
920000000 -0.47538576 -0.146529488
930000000 -0.439190112 -0.100063024
940000000 -0.392778144 -0.054941284
950000000 -0.338782784 -0.025632568
960000000 -0.294423552 -0.017190986
970000000 -0.2400752 -0.000201701
980000000 -0.181924976 0.001442705
990000000 -0.128208024 -0.017426468
1000000000 -0.09215724 -0.02437384
1010000000 -0.02711898 -0.061275592
1020000000 -0.001825571 -0.126253472
1030000000 0.00322059 -0.166502448
1040000000 0.019510916 -0.200216256
1050000000 0.022272158 -0.245752496
1060000000 0.031084858 -0.28779744
1070000000 0.021005946 -0.340997088
1080000000 0.005800389 -0.378137664
1090000000 -0.001338638 -0.412337408
1100000000 -0.022984224 -0.458513024
1110000000 -0.04460646 -0.484627488
1120000000 -0.059565108 -0.526367552
1130000000 -0.102777552 -0.553757696
1140000000 -0.139020384 -0.560052608
1150000000 -0.158520176 -0.581585024
1160000000 -0.189187936 -0.59186304
1170000000 -0.227169376 -0.60044512
1180000000 -0.252597456 -0.600815808
1190000000 -0.26980384 -0.599512896
1200000000 -0.290471904 -0.602837504
1210000000 -0.30101264 -0.608015296
1220000000 -0.333622912 -0.599657856
1230000000 -0.360898816 -0.594675776
1240000000 -0.377382912 -0.594128512
1250000000 -0.401127552 -0.593847744
1260000000 -0.417295968 -0.577232192
1270000000 -0.447816 -0.568304704
1280000000 -0.4445216 -0.550257664
1290000000 -0.468266336 -0.544281856
1300000000 -0.469029696 -0.537278016
1310000000 -0.492324992 -0.531649408
1320000000 -0.509113504 -0.521655136
1330000000 -0.510004576 -0.501267424
1340000000 -0.523627584 -0.49043968
1350000000 -0.529006496 -0.458619264
1360000000 -0.527331296 -0.439391456
1370000000 -0.514193056 -0.413661568
1380000000 -0.518204384 -0.40244928
1390000000 -0.53197408 -0.38189136
1400000000 -0.51573408 -0.341671392
