# HZ S RI R 50
400000000 -0.165264 -0.370044704
410000000 -0.178011424 -0.339013568
420000000 -0.190453792 -0.311614816
430000000 -0.1990728 -0.278212704
440000000 -0.206314912 -0.245371216
450000000 -0.212016592 -0.210670016
460000000 -0.216119664 -0.173138912
470000000 -0.214596736 -0.138414608
480000000 -0.210117808 -0.098959376
490000000 -0.200591184 -0.05867166
500000000 -0.185003392 -0.019959262
510000000 -0.163104192 0.01658162
520000000 -0.138209584 0.053648972
530000000 -0.104912208 0.081708848
540000000 -0.062897668 0.111543952
550000000 -0.010052356 0.129771176
560000000 0.047525916 0.136571664
570000000 0.104634616 0.122964176
580000000 0.148559584 0.099133344
590000000 0.181095504 0.073230296
600000000 0.209963056 0.043720408
610000000 0.231598208 0.014214722
620000000 0.248382112 -0.01761835
630000000 0.257509296 -0.044434536
640000000 0.2657888 -0.071336696
650000000 0.272796224 -0.095966016
660000000 0.274255776 -0.122241928
670000000 0.277328128 -0.145984704
680000000 0.275097952 -0.169011168
690000000 0.274410016 -0.187371568
700000000 0.274776 -0.207887344
710000000 0.27737184 -0.227572992
720000000 0.276054528 -0.251167264
730000000 0.268435648 -0.274041728
740000000 0.259595968 -0.291722112
750000000 0.254877776 -0.314074816
760000000 0.244880912 -0.332254016
770000000 0.236148576 -0.353737408
780000000 0.229015824 -0.372345088
790000000 0.214375296 -0.395927872
800000000 0.200274928 -0.41418432
810000000 0.1827632 -0.432267072
820000000 0.165248928 -0.44689856
830000000 0.147809552 -0.462316064
840000000 0.128536376 -0.474376544
850000000 0.10749368 -0.485676096
860000000 0.087100064 -0.496642336
870000000 0.061606428 -0.50590144
880000000 0.03729268 -0.513715552
890000000 0.016413732 -0.522412256
900000000 -0.009865364 -0.530415584
910000000 -0.029592756 -0.533766336
920000000 -0.057712924 -0.53801536
930000000 -0.08232516 -0.535413728
940000000 -0.105989208 -0.53844992
950000000 -0.126689536 -0.534816384
960000000 -0.150702992 -0.530803968
970000000 -0.177163136 -0.5285352
980000000 -0.19474568 -0.526677088
990000000 -0.219348096 -0.52171808
1000000000 -0.242411104 -0.518810048
1010000000 -0.268286016 -0.512954464
1020000000 -0.287900832 -0.513925088
1030000000 -0.310528256 -0.505962144
1040000000 -0.329309152 -0.506855424
1050000000 -0.355733824 -0.499961248
1060000000 -0.378009504 -0.494456192
1070000000 -0.40390624 -0.488100256
1080000000 -0.421395168 -0.484557312
1090000000 -0.440343936 -0.477716768
1100000000 -0.45745408 -0.471938304
1110000000 -0.478402944 -0.464228544
1120000000 -0.494284288 -0.451956064
1130000000 -0.505192512 -0.4466016
1140000000 -0.52041136 -0.437846752
1150000000 -0.529026752 -0.426334656
1160000000 -0.53236496 -0.420659264
1170000000 -0.54751904 -0.408145536
1180000000 -0.558977024 -0.404267712
1190000000 -0.559884608 -0.386459904
1200000000 -0.560727296 -0.377128864
1210000000 -0.569795776 -0.364186784
1220000000 -0.58372 -0.353898656
1230000000 -0.589823488 -0.341871584
1240000000 -0.579754496 -0.332381344
1250000000 -0.591485952 -0.317954048
1260000000 -0.584917952 -0.294143808
1270000000 -0.603829248 -0.270882848
1280000000 -0.596855232 -0.258732464
1290000000 -0.594260672 -0.25898648
1300000000 -0.58453088 -0.233117344
1310000000 -0.590309056 -0.223272768
1320000000 -0.581129216 -0.191241696
1330000000 -0.579821376 -0.19112048
1340000000 -0.564170624 -0.164513152
1350000000 -0.569977152 -0.142280672
1360000000 -0.562936896 -0.134563888
1370000000 -0.554637632 -0.116205832
1380000000 -0.534886848 -0.095769944
1390000000 -0.523065568 -0.097902376
1400000000 -0.517520064 -0.067858312
