# HZ S RI R 50
400000000 0.130431744 -0.007503393 0.001961782 0.00122146 0 0 0 0
410000000 0.127674136 0.003534216 0.002118825 -0.001837352 0 0 0 0
420000000 0.124415872 0.010338956 0.000346641 -0.004829203 0 0 0 0
430000000 0.121061848 0.020633728 -0.003283843 -0.006430289 0 0 0 0
440000000 0.116462704 0.029583842 -0.007032155 -0.004752012 0 0 0 0
450000000 0.109265576 0.040136272 -0.008445014 -0.003322421 0 0 0 0
460000000 0.103905368 0.048306604 -0.008400662 0.000954404 0 0 0 0
470000000 0.092019184 0.05850056 -0.00723576 0.00174021 0 0 0 0
480000000 0.083722864 0.068726072 -0.006081323 0.001792211 0 0 0 0
490000000 0.073966768 0.075092424 -0.006040274 0.002730515 0 0 0 0
500000000 0.06392 0.085952248 -0.003947651 0.003671412 0 0 0 0
510000000 0.050728956 0.095848472 -0.002072682 0.001587248 0 0 0 0
520000000 0.040424952 0.105810504 -0.004412729 0.000745679 0 0 0 0
530000000 0.034576168 0.118281152 -0.001573774 0.001699236 0 0 0 0
540000000 0.02806706 0.12825324 -0.000545888 -0.000888097 0 0 0 0
550000000 0.03163096 0.131117048 -0.000582978 -0.003777652 0 0 0 0
560000000 0.03510558 0.134177552 -0.004429781 -0.003519573 0 0 0 0
570000000 0.034129508 0.122589648 -0.004852619 -0.002369256 0 0 0 0
580000000 0.030313878 0.105432272 -0.00273634 -0.002952236 0 0 0 0
590000000 0.020271978 0.088436792 -0.004823246 -0.005755279 0 0 0 0
600000000 0.00725175 0.074594216 -0.004041093 -0.004716785 0 0 0 0
610000000 -0.001009827 0.060082492 -0.00164997 -0.00625226 0 0 0 0
620000000 -0.010934164 0.045351484 -0.004941372 -0.011008724 0 0 0 0
630000000 -0.020486336 0.03017672 -0.008349478 -0.012848594 0 0 0 0
640000000 -0.0302947 0.014529744 -0.01018877 -0.011329816 0 0 0 0
650000000 -0.038502944 -0.001134155 -0.011890914 -0.012975984 0 0 0 0
660000000 -0.042670992 -0.018052442 -0.014225044 -0.014631242 0 0 0 0
670000000 -0.04769492 -0.035057508 -0.019663508 -0.02048719 0 0 0 0
680000000 -0.05005216 -0.053363252 -0.030820506 -0.018910316 0 0 0 0
690000000 -0.051882932 -0.071996992 -0.037476264 -0.01280301 0 0 0 0
700000000 -0.049883696 -0.087424296 -0.04376554 -0.0080672 0 0 0 0
710000000 -0.045657308 -0.103479312 -0.051931504 -0.000963748 0 0 0 0
720000000 -0.040881684 -0.1196186 -0.053672992 0.01164865 0 0 0 0
730000000 -0.034465996 -0.135178512 -0.054082904 0.020025764 0 0 0 0
740000000 -0.025946348 -0.148533232 -0.054242404 0.031486542 0 0 0 0
750000000 -0.016076538 -0.16396728 -0.047622392 0.042719284 0 0 0 0
760000000 -0.004929998 -0.175895856 -0.040237292 0.047395748 0 0 0 0
770000000 0.007124275 -0.187110624 -0.036798664 0.048405684 0 0 0 0
780000000 0.021745638 -0.199351184 -0.039024752 0.05739394 0 0 0 0
790000000 0.03523814 -0.206534432 -0.026874534 0.07220656 0 0 0 0
800000000 0.0530119 -0.214348464 -0.012016584 0.070103048 0 0 0 0
810000000 0.070499008 -0.220610768 -0.006726459 0.067627272 0 0 0 0
820000000 0.089139896 -0.22334208 -0.000608284 0.06541308 0 0 0 0
830000000 0.10765232 -0.224996384 -0.00306374 0.065920696 0 0 0 0
840000000 0.127460256 -0.224687456 -0.003852619 0.07152624 0 0 0 0
850000000 0.14613288 -0.224106576 0.007943772 0.084770696 0 0 0 0
860000000 0.165412368 -0.21813608 0.024264392 0.084766224 0 0 0 0
870000000 0.18257528 -0.211732784 0.040587992 0.082479464 0 0 0 0
880000000 0.200361536 -0.201700672 0.053306216 0.067578176 0 0 0 0
890000000 0.215834016 -0.194896512 0.0507209 0.058877716 0 0 0 0
900000000 0.231498864 -0.18590464 0.060093864 0.063827508 0 0 0 0
910000000 0.246017552 -0.17368416 0.068930744 0.05553284 0 0 0 0
920000000 0.257897968 -0.156074928 0.07917392 0.04672402 0 0 0 0
930000000 0.271437376 -0.139464288 0.085207488 0.031557512 0 0 0 0
940000000 0.27880976 -0.12179604 0.081983776 0.018958974 0 0 0 0
950000000 0.290470592 -0.104449704 0.080591968 0.01468933 0 0 0 0
960000000 0.2977528 -0.082975536 0.07254192 0.017924718 0 0 0 0
970000000 0.305128768 -0.064798028 0.095457736 0.025925524 0 0 0 0
980000000 0.30925472 -0.041110436 0.121727792 -0.00065187 0 0 0 0
990000000 0.30747408 -0.021582664 0.120242632 -0.03404722 0 0 0 0
1000000000 0.30826512 0.003410397 0.113834856 -0.06266824 0 0 0 0
1010000000 0.304677792 0.02039362 0.092022264 -0.088238936 0 0 0 0
1020000000 0.29533936 0.042237156 0.064159 -0.095649672 0 0 0 0
1030000000 0.292717952 0.066236356 0.047168344 -0.096282152 0 0 0 0
1040000000 0.285748864 0.090859288 0.030223886 -0.094396856 0 0 0 0
1050000000 0.274147424 0.112906624 0.018748764 -0.09002552 0 0 0 0
1060000000 0.255337872 0.131523384 0.017774698 -0.089344088 0 0 0 0
1070000000 0.236794544 0.153018256 0.000998812 -0.100943408 0 0 0 0
1080000000 0.21561992 0.16888592 -0.017331842 -0.104359344 0 0 0 0
1090000000 0.18905096 0.188735744 -0.04552894 -0.099183424 0 0 0 0
1100000000 0.165350608 0.204137104 -0.069486608 -0.07818188 0 0 0 0
1110000000 0.137526128 0.2049536 -0.076147816 -0.05008688 0 0 0 0
1120000000 0.109727672 0.209147536 -0.070499208 -0.027908594 0 0 0 0
1130000000 0.082313504 0.215294112 -0.057316404 -0.00862193 0 0 0 0
1140000000 0.047052388 0.214403984 -0.041935984 -0.010307196 0 0 0 0
1150000000 0.016908014 0.206098304 -0.03753514 -0.011879736 0 0 0 0
1160000000 -0.005714776 0.203663328 -0.036602756 -0.01582497 0 0 0 0
1170000000 -0.03821284 0.190291568 -0.04094984 -0.017578002 0 0 0 0
1180000000 -0.059668724 0.167515232 -0.048421284 -0.01502998 0 0 0 0
1190000000 -0.083133928 0.140479104 -0.05629158 -0.00388591 0 0 0 0
1200000000 -0.114078104 0.121983472 -0.05723694 0.011721966 0 0 0 0
1210000000 -0.13187644 0.098873272 -0.044798644 0.017750464 0 0 0 0
1220000000 -0.145573968 0.068087112 -0.036246832 0.019524272 0 0 0 0
1230000000 -0.154508064 0.039599016 -0.031233042 0.021554 0 0 0 0
1240000000 -0.156343472 0.012018096 -0.030062166 0.017498604 0 0 0 0
1250000000 -0.170478208 -0.013936522 -0.026081666 0.020792962 0 0 0 0
1260000000 -0.170888224 -0.049798328 -0.028845972 0.018199464 0 0 0 0
1270000000 -0.1589696 -0.084310424 -0.03073941 0.017802044 0 0 0 0
1280000000 -0.153843776 -0.12360992 -0.031624988 0.025525304 0 0 0 0
1290000000 -0.152684064 -0.150015184 -0.0292292 0.031436618 0 0 0 0
1300000000 -0.134392256 -0.179827808 -0.027042128 0.033468592 0 0 0 0
1310000000 -0.113015192 -0.189623024 -0.018580332 0.036962704 0 0 0 0
1320000000 -0.105929904 -0.219763248 -0.020202992 0.032649652 0 0 0 0
1330000000 -0.08286752 -0.24459424 -0.022325944 0.0361586 0 0 0 0
1340000000 -0.05261108 -0.26981728 -0.019884434 0.038733544 0 0 0 0
1350000000 -0.01977793 -0.284912192 -0.014138914 0.039187288 0 0 0 0
1360000000 0.005203273 -0.291088672 -0.014992678 0.039721716 0 0 0 0
1370000000 0.03471282 -0.308887104 -0.019411626 0.044660164 0 0 0 0
1380000000 0.058705012 -0.326187072 -0.007152816 0.04809734 0 0 0 0
1390000000 0.08307596 -0.316024672 -0.013752316 0.044839708 0 0 0 0
1400000000 0.126351552 -0.325557984 -0.008774 0.049743712 0 0 0 0
