# HZ S RI R 50
50000 -0.002889475 0.000198914 -0.000462442 -6.9513e-05 0 0 0 0
15049500 -0.141752624 -0.071999936 -0.00023047 2.448e-06 0 0 0 0
30049000 -0.156678736 -0.007435166 -0.000408636 0.000215167 0 0 0 0
45048500 -0.141459456 0.012115008 -0.000583146 0.000699702 0 0 0 0
60048000 -0.130285696 0.016671406 -0.000217459 0.00078899 0 0 0 0
75047500 -0.122922776 0.016564968 -0.000206799 0.001175998 0 0 0 0
90047000 -0.1180666 0.013547802 -0.000459489 0.001504972 0 0 0 0
105046500 -0.116998568 0.009268464 -0.000420279 0.002353088 0 0 0 0
120046000 -0.118326168 0.004717202 -8.5841e-05 0.002884225 0 0 0 0
135045500 -0.122886912 0.000704569 0.000290036 0.003289942 0 0 0 0
150045000 -0.12997508 -0.001378334 0.000814371 0.003708783 0 0 0 0
165044500 -0.138292368 -0.001201245 0.001565157 0.003906583 0 0 0 0
180044000 -0.147336432 0.00185314 0.002247366 0.004033664 0 0 0 0
195043500 -0.15591664 0.007458042 0.002821626 0.003952087 0 0 0 0
210043000 -0.163382752 0.015117872 0.003459388 0.003817364 0 0 0 0
225042500 -0.16951128 0.024032344 0.003809264 0.003548129 0 0 0 0
240042000 -0.174534512 0.03452258 0.004360737 0.003320843 0 0 0 0
255041500 -0.17803272 0.046061248 0.004906118 0.003048853 0 0 0 0
270041000 -0.17859936 0.057444252 0.005355134 0.002362961 0 0 0 0
285040500 -0.178658224 0.06709692 0.005394388 0.001708416 0 0 0 0
300040000 -0.177513632 0.076000032 0.005501521 0.001363248 0 0 0 0
315039500 -0.178584 0.087126344 0.005034324 0.001045173 0 0 0 0
330039000 -0.177944464 0.096315752 0.00519292 0.000991693 0 0 0 0
345038500 -0.175645776 0.106693408 0.005521308 0.000755347 0 0 0 0
360038000 -0.173285536 0.115623448 0.005584367 0.000557162 0 0 0 0
375037500 -0.171125776 0.123948584 0.005633401 0.000258369 0 0 0 0
390037000 -0.16874104 0.132422536 0.00593164 -4.5314e-05 0 0 0 0
405036500 -0.1659824 0.14060496 0.005761127 -0.000453178 0 0 0 0
420036000 -0.161889376 0.148345744 0.00607078 -0.000338741 0 0 0 0
435035500 -0.158672048 0.155722864 0.006109998 -0.001133048 0 0 0 0
450035000 -0.155341472 0.162458592 0.00608225 -0.00104848 0 0 0 0
465034500 -0.151729568 0.169985232 0.006043927 -0.001621832 0 0 0 0
480034000 -0.149883552 0.174669968 0.005890311 -0.00178783 0 0 0 0
495033500 -0.144378288 0.182551456 0.005838712 -0.002063543 0 0 0 0
510033000 -0.142219328 0.188170128 0.00561089 -0.002374764 0 0 0 0
525032500 -0.137654192 0.194529568 0.005579137 -0.002706249 0 0 0 0
540032000 -0.133291736 0.20058024 0.005165313 -0.002858046 0 0 0 0
555031500 -0.13047792 0.205898592 0.005457106 -0.002789426 0 0 0 0
570031000 -0.125814856 0.211477664 0.005124541 -0.003313143 0 0 0 0
585030500 -0.122000968 0.214624256 0.005169751 -0.00335355 0 0 0 0
600030000 -0.118345656 0.22198504 0.005084684 -0.003571127 0 0 0 0
615029500 -0.114463336 0.22638728 0.004884487 -0.003984798 0 0 0 0
630029000 -0.109087344 0.22970656 0.005269083 -0.004236136 0 0 0 0
645028500 -0.105530768 0.233682048 0.005041444 -0.004744552 0 0 0 0
660028000 -0.100886656 0.236582544 0.004558326 -0.005282051 0 0 0 0
675027500 -0.096961144 0.240534 0.004695652 -0.005277424 0 0 0 0
690027000 -0.092965328 0.244622736 0.004165534 -0.005867537 0 0 0 0
705026500 -0.089524608 0.2478784 0.003814852 -0.006170974 0 0 0 0
720026000 -0.08362068 0.250977184 0.003426476 -0.006087762 0 0 0 0
735025500 -0.079248128 0.25627512 0.002608093 -0.006697626 0 0 0 0
750025000 -0.072849888 0.257232272 0.002613686 -0.006448318 0 0 0 0
765024500 -0.067514848 0.26131656 0.002385029 -0.005876624 0 0 0 0
780024000 -0.06240278 0.26352552 0.002262932 -0.005537163 0 0 0 0
795023500 -0.0569273 0.265039328 0.001525573 -0.005833317 0 0 0 0
810023000 -0.051565364 0.266578496 0.002160917 -0.005967693 0 0 0 0
825022500 -0.045299068 0.269364704 0.001524237 -0.006680305 0 0 0 0
840022000 -0.04110264 0.269713664 0.001268047 -0.006167006 0 0 0 0
855021500 -0.035771028 0.271405696 0.001574188 -0.00615505 0 0 0 0
870021000 -0.029755582 0.274109408 0.002415538 -0.005854749 0 0 0 0
885020500 -0.024531694 0.270455104 0.001515566 -0.005428337 0 0 0 0
900020000 -0.013345218 0.26735776 0.002457396 -0.005498823 0 0 0 0
915019500 -0.013734324 0.269687552 0.002450674 -0.005725003 0 0 0 0
930019000 -0.007522471 0.267264608 0.002214592 -0.006247265 0 0 0 0
945018500 -0.002133603 0.270608928 0.003789365 -0.005496659 0 0 0 0
960018000 0.002001773 0.266866976 0.00102368 -0.006220134 0 0 0 0
975017500 0.009835646 0.269153984 0.001283326 -0.00651301 0 0 0 0
990017000 0.014241208 0.270728768 0.002039266 -0.007686171 0 0 0 0
1005016500 0.020703198 0.270476832 0.000991297 -0.008430712 0 0 0 0
1020016000 0.025497306 0.272846752 0.000804788 -0.00863583 0 0 0 0
1035015500 0.031526562 0.2771768 -0.000638292 -0.009110434 0 0 0 0
1050015000 0.038009828 0.277548576 -0.000696497 -0.00852376 0 0 0 0
1065014500 0.04299334 0.27721696 0.000147705 -0.009334912 0 0 0 0
1080014000 0.050225996 0.280799648 -0.001469076 -0.009265702 0 0 0 0
1095013500 0.052778164 0.28121472 -0.001306427 -0.00569482 0 0 0 0
1110013000 0.060293736 0.285086304 -0.001434804 -0.007791152 0 0 0 0
1125012500 0.069662432 0.285215584 -0.002876709 -0.007061987 0 0 0 0
1140012000 0.06595944 0.2900552 -0.003623641 -0.007849179 0 0 0 0
1155011500 0.071102576 0.298394112 -0.001621629 -0.009062474 0 0 0 0
1170011000 0.08226084 0.294375744 -0.003486407 -0.008762696 0 0 0 0
1185010500 0.078828128 0.299187968 -0.004046441 -0.009337964 0 0 0 0
1200010000 0.068082592 0.293763936 -0.005014434 -0.007860761 0 0 0 0
1215009500 0.070436048 0.311520864 -0.004194199 -0.00969029 0 0 0 0
1230009000 0.08354512 0.311267392 -0.005140301 -0.007572682 0 0 0 0
1245008500 0.092515448 0.308440032 -0.002205111 -0.008283221 0 0 0 0
1260008000 0.078555904 0.307518624 -0.004177686 -0.009415684 0 0 0 0
1275007500 0.087000896 0.301740832 -0.007037768 -0.009060266 0 0 0 0
1290007000 0.076903904 0.303514336 -0.00980783 -0.01116106 0 0 0 0
1305006500 0.087150384 0.30462944 -0.008033129 -0.008022794 0 0 0 0
1320006000 0.084759376 0.30315808 -0.006981125 -0.009298404 0 0 0 0
1335005500 0.09559504 0.295811072 -0.007902639 -0.009008152 0 0 0 0
1350005000 0.090140648 0.309495072 -0.012998188 -0.00422647 0 0 0 0
1365004500 0.087193752 0.296874688 -0.008506806 -0.006762495 0 0 0 0
1380004000 0.105916976 0.304295072 -0.010617788 -0.010500214 0 0 0 0
1395003500 0.105189768 0.298076288 -0.010799454 -0.005875333 0 0 0 0
1410003000 0.10992904 0.305547104 -0.011584058 -0.00799452 0 0 0 0
1425002500 0.113687376 0.301173344 -0.015296004 -0.003746512 0 0 0 0
1440002000 0.125438896 0.297163712 -0.015147108 -0.010002436 0 0 0 0
1455001500 0.0722924 0.280937792 -0.01603457 -0.016691078 0 0 0 0
1470001000 0.101291184 0.191871056 -0.006632447 -0.009495314 0 0 0 0
1485000500 0.097022944 0.249159568 -0.009972604 -0.012061046 0 0 0 0
1500000000 0.13367848 0.1976372 -0.014135264 0.00076063 0 0 0 0
