# HZ S RI R 50
50000 -0.000258592 -0.001836635 -0.000258463 -0.000285595 0 0 0 0
15049500 -0.16287672 0.041980332 -0.000351316 0.000289854 0 0 0 0
30049000 -0.063829428 0.03958516 -0.000562552 0.000532788 0 0 0 0
45048500 -0.052956928 0.022845562 -0.000491847 0.001110005 0 0 0 0
60048000 -0.049852824 0.014141438 -0.000611699 0.001530631 0 0 0 0
75047500 -0.04936576 0.008342075 -0.000960271 0.00219347 0 0 0 0
90047000 -0.050252508 0.00423285 -0.00104754 0.002775437 0 0 0 0
105046500 -0.054588016 0.0004683 -0.001029744 0.003849147 0 0 0 0
120046000 -0.056491036 -0.002026099 -0.000986492 0.004737299 0 0 0 0
135045500 -0.058975632 -0.003641485 -0.000745592 0.00590093 0 0 0 0
150045000 -0.061398172 -0.004995874 -0.00040612 0.006991105 0 0 0 0
165044500 -0.06433346 -0.005716106 8.3984e-05 0.007995101 0 0 0 0
180044000 -0.067580264 -0.005953001 0.000851235 0.009037494 0 0 0 0
195043500 -0.070998432 -0.005675185 0.001740699 0.010111106 0 0 0 0
210043000 -0.074576384 -0.004879656 0.002818008 0.011088082 0 0 0 0
225042500 -0.078541128 -0.003789318 0.004106527 0.01193341 0 0 0 0
240042000 -0.08273032 -0.001821677 0.005619863 0.012823094 0 0 0 0
255041500 -0.086561512 0.001242137 0.007590772 0.013436782 0 0 0 0
270041000 -0.08916744 0.003933219 0.009409962 0.013456 0 0 0 0
285040500 -0.092038984 0.006284483 0.011163442 0.01345964 0 0 0 0
300040000 -0.095797688 0.009826866 0.013139984 0.01354883 0 0 0 0
315039500 -0.099622488 0.012717466 0.01492652 0.013199086 0 0 0 0
330039000 -0.10365476 0.01699781 0.01691122 0.01311614 0 0 0 0
345038500 -0.107471088 0.021273394 0.0191283 0.012639716 0 0 0 0
360038000 -0.110640352 0.025517116 0.021321352 0.01112472 0 0 0 0
375037500 -0.114636432 0.030650848 0.023802118 0.009703416 0 0 0 0
390037000 -0.118269536 0.035210668 0.025657148 0.007919137 0 0 0 0
405036500 -0.121676584 0.041090236 0.027799086 0.005449449 0 0 0 0
420036000 -0.123808384 0.046852968 0.029003302 0.002682192 0 0 0 0
435035500 -0.126726952 0.05331962 0.029940698 -0.000180888 0 0 0 0
450035000 -0.129431056 0.058901912 0.030912496 -0.002929131 0 0 0 0
465034500 -0.13134612 0.064091228 0.030822252 -0.005569984 0 0 0 0
480034000 -0.133776768 0.069893448 0.030758206 -0.008599884 0 0 0 0
495033500 -0.13837272 0.07631756 0.030663562 -0.011196624 0 0 0 0
510033000 -0.138204224 0.083180056 0.029216302 -0.014056578 0 0 0 0
525032500 -0.14162008 0.08978828 0.0288894 -0.016972482 0 0 0 0
540032000 -0.14362472 0.096538608 0.027446866 -0.018999726 0 0 0 0
555031500 -0.145143392 0.10431808 0.025465932 -0.0216948 0 0 0 0
570031000 -0.146486512 0.110924512 0.023636516 -0.023694798 0 0 0 0
585030500 -0.148062336 0.115994416 0.021986524 -0.02577319 0 0 0 0
600030000 -0.148677984 0.124568336 0.019917742 -0.027236226 0 0 0 0
615029500 -0.148683392 0.130304872 0.017964874 -0.02763448 0 0 0 0
630029000 -0.150754992 0.137249424 0.01598173 -0.029291566 0 0 0 0
645028500 -0.149680368 0.14485128 0.013758394 -0.029676662 0 0 0 0
660028000 -0.150650832 0.152000496 0.01194289 -0.030800382 0 0 0 0
675027500 -0.151220384 0.158098944 0.009723502 -0.0313274 0 0 0 0
690027000 -0.150756608 0.165403776 0.007507849 -0.031711742 0 0 0 0
705026500 -0.149568256 0.173678032 0.005005433 -0.03219074 0 0 0 0
720026000 -0.147561024 0.180557072 0.002613148 -0.032204666 0 0 0 0
735025500 -0.146390544 0.186208768 0.000674049 -0.03158084 0 0 0 0
750025000 -0.143357392 0.19413136 -0.001316957 -0.030995136 0 0 0 0
765024500 -0.140642944 0.200693024 -0.003308807 -0.030288532 0 0 0 0
780024000 -0.138420528 0.207232848 -0.004986368 -0.029730002 0 0 0 0
795023500 -0.135034032 0.213361296 -0.00655547 -0.029019798 0 0 0 0
810023000 -0.130245536 0.220270944 -0.007617873 -0.028018694 0 0 0 0
825022500 -0.125943336 0.225632416 -0.00935118 -0.02741661 0 0 0 0
840022000 -0.123182248 0.232720288 -0.010007 -0.026671148 0 0 0 0
855021500 -0.11981672 0.23566208 -0.010871024 -0.025591106 0 0 0 0
870021000 -0.10992372 0.240960432 -0.010933704 -0.024214882 0 0 0 0
885020500 -0.112091712 0.243356288 -0.01018907 -0.021911852 0 0 0 0
900020000 -0.10195828 0.250246288 -0.012534074 -0.021960302 0 0 0 0
915019500 -0.099394944 0.257978416 -0.013961234 -0.021879374 0 0 0 0
930019000 -0.092694208 0.260774464 -0.013660862 -0.021124844 0 0 0 0
945018500 -0.08638672 0.26153216 -0.013469294 -0.019255568 0 0 0 0
960018000 -0.080765736 0.270882432 -0.014565248 -0.018629552 0 0 0 0
975017500 -0.077263072 0.27361968 -0.015322124 -0.018144814 0 0 0 0
990017000 -0.071100296 0.28215264 -0.015984802 -0.017836694 0 0 0 0
1005016500 -0.060273148 0.284732416 -0.017083294 -0.01681145 0 0 0 0
1020016000 -0.052528472 0.289485664 -0.018855324 -0.01632214 0 0 0 0
1035015500 -0.04655178 0.292658976 -0.01683912 -0.014893046 0 0 0 0
1050015000 -0.0406641 0.301861664 -0.017672216 -0.014031476 0 0 0 0
1065014500 -0.034090876 0.309789568 -0.019569804 -0.012861584 0 0 0 0
1080014000 -0.027925016 0.311162304 -0.018923928 -0.010576158 0 0 0 0
1095013500 -0.016374576 0.319250688 -0.019135652 -0.012150384 0 0 0 0
1110013000 -0.016003406 0.327864096 -0.020978024 -0.010240336 0 0 0 0
1125012500 -0.00718582 0.329561664 -0.01938352 -0.00936618 0 0 0 0
1140012000 -0.001559844 0.338453696 -0.01905115 -0.01005693 0 0 0 0
1155011500 0.00399523 0.33997872 -0.020336302 -0.00903134 0 0 0 0
1170011000 0.008134241 0.345501856 -0.020002826 -0.00706667 0 0 0 0
1185010500 0.015925274 0.355601984 -0.019612556 -0.006454993 0 0 0 0
1200010000 0.010507854 0.3637472 -0.018994048 -0.008454402 0 0 0 0
1215009500 0.025142978 0.368705056 -0.020300788 -0.007325073 0 0 0 0
1230009000 0.034618136 0.358929952 -0.0204046 -0.007595974 0 0 0 0
1245008500 0.040363936 0.370236544 -0.02246411 -0.005347292 0 0 0 0
1260008000 0.04139122 0.364294528 -0.023017776 -0.002329505 0 0 0 0
1275007500 0.031317298 0.36442704 -0.022454794 -0.003562976 0 0 0 0
1290007000 0.04602696 0.360846304 -0.022210186 -0.000311416 0 0 0 0
1305006500 0.048528148 0.371415968 -0.026230536 -0.00231645 0 0 0 0
1320006000 0.052009044 0.371795424 -0.019901838 -0.004387027 0 0 0 0
1335005500 0.05690638 0.371685344 -0.022506772 0.002881757 0 0 0 0
1350005000 0.071999408 0.378481248 -0.023086648 -0.001115246 0 0 0 0
1365004500 0.069247632 0.36702416 -0.022876838 0.000983625 0 0 0 0
1380004000 0.07608192 0.372908896 -0.02003223 0.000636842 0 0 0 0
1395003500 0.077486344 0.374662688 -0.021922952 0.001965718 0 0 0 0
1410003000 0.084696736 0.371028256 -0.026609586 0.003435522 0 0 0 0
1425002500 0.096660568 0.377173984 -0.02470429 0.00990779 0 0 0 0
1440002000 0.10087924 0.3824448 -0.026027868 0.001937614 0 0 0 0
1455001500 0.129165144 0.296501856 -0.026234068 -0.000118997 0 0 0 0
1470001000 0.1423812 0.316037856 -0.02316166 0.003797988 0 0 0 0
1485000500 0.136404256 0.291850016 -0.026579182 0.005710426 0 0 0 0
1500000000 0.185848592 0.305543328 -0.02905776 -0.001550667 0 0 0 0
