# HZ S RI R 50
50000 -0.23307008 0.000925304 -0.000299965 0.000459844 0 0 0 0
15049500 -0.233381616 0.013324824 0.027338954 -0.071605624 0 0 0 0
30049000 -0.231082224 0.025546136 0.008050163 -0.172825552 0 0 0 0
45048500 -0.228224592 0.038607844 -0.040065408 -0.267879664 0 0 0 0
60048000 -0.223937072 0.050957976 -0.114201336 -0.3525448 0 0 0 0
75047500 -0.217345696 0.06303686 -0.214276496 -0.421143296 0 0 0 0
90047000 -0.209785808 0.073423184 -0.33690624 -0.46689952 0 0 0 0
105046500 -0.202918192 0.084250184 -0.400268032 -0.419501888 0 0 0 0
120046000 -0.19350784 0.0924126 -0.515051008 -0.395888384 0 0 0 0
135045500 -0.183726928 0.0987018 -0.624640512 -0.34148704 0 0 0 0
150045000 -0.174231296 0.103264128 -0.721508352 -0.261003824 0 0 0 0
165044500 -0.164912512 0.105794864 -0.800324224 -0.15629544 0 0 0 0
180044000 -0.156870656 0.106960208 -0.85598528 -0.03646776 0 0 0 0
195043500 -0.149964704 0.10729328 -0.887772096 0.091619376 0 0 0 0
210043000 -0.144861776 0.106642184 -0.895017088 0.22136008 0 0 0 0
225042500 -0.141399792 0.105599432 -0.878425024 0.346513792 0 0 0 0
240042000 -0.140182352 0.105344584 -0.841262016 0.461752864 0 0 0 0
255041500 -0.140031648 0.10625304 -0.786443136 0.565037824 0 0 0 0
270041000 -0.13884616 0.10854932 -0.718319744 0.649895872 0 0 0 0
285040500 -0.137973216 0.109227224 -0.647372992 0.715625984 0 0 0 0
300040000 -0.134958512 0.11369684 -0.523570048 0.704412608 0 0 0 0
315039500 -0.134043904 0.116664656 -0.450897888 0.730190272 0 0 0 0
330039000 -0.13409156 0.120090712 -0.37775056 0.74954688 0 0 0 0
345038500 -0.13303752 0.123182104 -0.31021504 0.758217088 0 0 0 0
360038000 -0.132445648 0.127066104 -0.2419828 0.75778368 0 0 0 0
375037500 -0.131270424 0.130434304 -0.178538 0.75036576 0 0 0 0
390037000 -0.131219488 0.133773448 -0.1179668 0.738604288 0 0 0 0
405036500 -0.130511088 0.13809848 -0.060257592 0.720661056 0 0 0 0
420036000 -0.129989088 0.142756992 -0.009127052 0.699090752 0 0 0 0
435035500 -0.130376208 0.147485472 0.03457728 0.67566464 0 0 0 0
450035000 -0.130259496 0.151701376 0.072817264 0.651146752 0 0 0 0
465034500 -0.130498768 0.155638368 0.10126188 0.626931904 0 0 0 0
480034000 -0.130970552 0.160199888 0.129085648 0.604814144 0 0 0 0
495033500 -0.132713928 0.165600272 0.157042 0.579076032 0 0 0 0
510033000 -0.131161928 0.16937336 0.181090944 0.552073152 0 0 0 0
525032500 -0.131424752 0.175421488 0.200008416 0.53080928 0 0 0 0
540032000 -0.131738736 0.182202832 0.217826032 0.510954016 0 0 0 0
555031500 -0.131930752 0.187993104 0.235001232 0.493169888 0 0 0 0
570031000 -0.131083144 0.192683472 0.250784032 0.479454752 0 0 0 0
585030500 -0.129727288 0.200286688 0.266044768 0.4652992 0 0 0 0
600030000 -0.127742696 0.208872528 0.284096512 0.453299904 0 0 0 0
615029500 -0.125577776 0.21615656 0.301784288 0.441499488 0 0 0 0
630029000 -0.122683976 0.221977776 0.321289088 0.429146432 0 0 0 0
645028500 -0.12093572 0.23009992 0.342013216 0.416494784 0 0 0 0
660028000 -0.114553432 0.237947904 0.36303872 0.403004704 0 0 0 0
675027500 -0.108206192 0.242932208 0.385987904 0.389758944 0 0 0 0
690027000 -0.103410288 0.246408784 0.407746944 0.373253888 0 0 0 0
705026500 -0.098848016 0.2512492 0.432151104 0.358850912 0 0 0 0
720026000 -0.092112952 0.254952544 0.456976704 0.336055264 0 0 0 0
735025500 -0.086314576 0.257623168 0.479499552 0.316535392 0 0 0 0
750025000 -0.081600328 0.261034848 0.501717792 0.290260032 0 0 0 0
765024500 -0.075073928 0.262437104 0.525039328 0.259836496 0 0 0 0
780024000 -0.06855484 0.263955952 0.541149952 0.22872344 0 0 0 0
795023500 -0.06423582 0.267110736 0.557127808 0.196406816 0 0 0 0
810023000 -0.055719912 0.270126016 0.56631616 0.16160616 0 0 0 0
825022500 -0.051093604 0.272114304 0.572953856 0.127167824 0 0 0 0
840022000 -0.046082484 0.274613984 0.577499968 0.089077088 0 0 0 0
855021500 -0.041194144 0.27589328 0.577521664 0.0594275 0 0 0 0
870021000 -0.042609148 0.28980736 0.505294688 0.182091984 0 0 0 0
885020500 -0.036355316 0.287603712 0.523740064 0.158128096 0 0 0 0
900020000 -0.029307638 0.284904736 0.536008128 0.128624024 0 0 0 0
915019500 -0.017865476 0.285414304 0.547991424 0.095554832 0 0 0 0
930019000 -0.01056083 0.286074784 0.553742336 0.062932348 0 0 0 0
945018500 -0.006816858 0.285008352 0.554650816 0.02710484 0 0 0 0
960018000 0.002435329 0.28465504 0.556623872 -0.009539574 0 0 0 0
975017500 0.008787378 0.281853024 0.550297472 -0.04033622 0 0 0 0
990017000 0.018330316 0.287513184 0.545310976 -0.076118408 0 0 0 0
1005016500 0.02403169 0.285465664 0.534916288 -0.10626696 0 0 0 0
1020016000 0.032731112 0.283394112 0.519213664 -0.141900144 0 0 0 0
1035015500 0.036771868 0.286696256 0.50291456 -0.169521088 0 0 0 0
1050015000 0.047469892 0.28988864 0.48702336 -0.192319136 0 0 0 0
1065014500 0.051048736 0.290894016 0.466687872 -0.222282592 0 0 0 0
1080014000 0.057165148 0.293779808 0.438705664 -0.243445424 0 0 0 0
1095013500 0.066096008 0.293163232 0.415763264 -0.2717232 0 0 0 0
1110013000 0.06600786 0.291680288 0.39181664 -0.29401056 0 0 0 0
1125012500 0.072895848 0.296357856 0.370348608 -0.317370592 0 0 0 0
1140012000 0.0739392 0.298792192 0.346403456 -0.344183968 0 0 0 0
1155011500 0.078974824 0.300755744 0.324692448 -0.360418496 0 0 0 0
1170011000 0.083032144 0.301730976 0.308085344 -0.385651072 0 0 0 0
1185010500 0.081833512 0.307952416 0.282730112 -0.410623904 0 0 0 0
1200010000 0.085907824 0.296399968 0.259548224 -0.436611712 0 0 0 0
1215009500 0.09137204 0.310291424 0.23711792 -0.454932512 0 0 0 0
1230009000 0.088406264 0.318445472 0.215133552 -0.469828288 0 0 0 0
1245008500 0.08226664 0.318108992 0.184338368 -0.489921216 0 0 0 0
1260008000 0.080821536 0.316261376 0.150567152 -0.505983424 0 0 0 0
1275007500 0.091351968 0.304425024 0.125297128 -0.519519552 0 0 0 0
1290007000 0.083835488 0.309280256 0.1032552 -0.527096704 0 0 0 0
1305006500 0.096181968 0.31753776 0.074479624 -0.535555232 0 0 0 0
1320006000 0.08490712 0.307927072 0.043287736 -0.541857088 0 0 0 0
1335005500 0.092157672 0.306359616 0.013867162 -0.54127712 0 0 0 0
1350005000 0.09423248 0.317529376 -0.018605634 -0.539958272 0 0 0 0
1365004500 0.105640728 0.315702464 -0.02311726 -0.532810336 0 0 0 0
1380004000 0.111843304 0.3080192 -0.065885992 -0.523449664 0 0 0 0
1395003500 0.1196628 0.31068576 -0.087043984 -0.518565056 0 0 0 0
1410003000 0.122998008 0.312275712 -0.110238296 -0.503510944 0 0 0 0
1425002500 0.13045964 0.316776992 -0.127542792 -0.477713888 0 0 0 0
1440002000 0.118796752 0.319710336 -0.140070112 -0.465316384 0 0 0 0
1455001500 0.071746032 0.229696944 -0.236290816 -0.649204032 0 0 0 0
1470001000 0.08904716 0.278752704 -0.239117424 -0.602250688 0 0 0 0
1485000500 0.08738176 0.25402456 -0.278080832 -0.59415328 0 0 0 0
1500000000 0.135258128 0.247651568 -0.287012576 -0.591948992 0 0 0 0
