# HZ S RI R 50
50000 -0.23345408 -0.000999478 -9.527e-05 -9.964e-05 0 0 0 0
15049500 -0.23320832 0.01286494 -0.000530386 0.000345832 0 0 0 0
30049000 -0.232024832 0.025390818 -0.000179867 0.000650149 0 0 0 0
45048500 -0.229680112 0.03830668 -0.000836658 0.00102388 0 0 0 0
60048000 -0.226645984 0.051112156 -0.000743365 0.001286961 0 0 0 0
75047500 -0.223382576 0.063530496 -0.000774574 0.002370515 0 0 0 0
90047000 -0.217827504 0.076039368 -0.001103504 0.002577104 0 0 0 0
105046500 -0.21332136 0.08841712 -0.000904082 0.003839737 0 0 0 0
120046000 -0.20688832 0.09979956 -0.000803925 0.00466639 0 0 0 0
135045500 -0.200027728 0.110840376 -0.000635328 0.005673152 0 0 0 0
150045000 -0.191958864 0.121609936 -0.00033834 0.006753627 0 0 0 0
165044500 -0.183349872 0.131368024 5.8065e-05 0.007750678 0 0 0 0
180044000 -0.17400208 0.140728304 0.000712755 0.008856102 0 0 0 0
195043500 -0.163938336 0.149366576 0.001517159 0.009992268 0 0 0 0
210043000 -0.153135584 0.15733272 0.002541098 0.010871842 0 0 0 0
225042500 -0.142209472 0.164164912 0.003863556 0.012015306 0 0 0 0
240042000 -0.131192144 0.170198224 0.005327406 0.012930906 0 0 0 0
255041500 -0.119822872 0.175944144 0.007083286 0.013614724 0 0 0 0
270041000 -0.10637184 0.180893536 0.008895432 0.013937998 0 0 0 0
285040500 -0.092869896 0.181749024 0.01090394 0.013936808 0 0 0 0
300040000 -0.080458008 0.181733664 0.012983894 0.01380621 0 0 0 0
315039500 -0.07016608 0.180786432 0.014428478 0.013390996 0 0 0 0
330039000 -0.058403656 0.180359392 0.01681654 0.013310934 0 0 0 0
345038500 -0.048727412 0.177523936 0.018842808 0.012965564 0 0 0 0
360038000 -0.038715368 0.173820224 0.021570336 0.011704296 0 0 0 0
375037500 -0.03031222 0.1694616 0.023370334 0.010005092 0 0 0 0
390037000 -0.023276858 0.163143968 0.02518469 0.008239392 0 0 0 0
405036500 -0.017110378 0.157077648 0.026915382 0.005609233 0 0 0 0
420036000 -0.012473092 0.150396928 0.028252544 0.003337355 0 0 0 0
435035500 -0.00972101 0.14284984 0.029278722 0.00090995 0 0 0 0
450035000 -0.008270629 0.13524056 0.029755522 -0.001562093 0 0 0 0
465034500 -0.008564538 0.127751632 0.0306332 -0.004001241 0 0 0 0
480034000 -0.010301578 0.120089752 0.03085149 -0.006493974 0 0 0 0
495033500 -0.012519428 0.11435564 0.030817226 -0.008724916 0 0 0 0
510033000 -0.015038052 0.108044888 0.03077733 -0.011896312 0 0 0 0
525032500 -0.01937717 0.10307944 0.030107398 -0.01410336 0 0 0 0
540032000 -0.024628348 0.098649784 0.02929619 -0.016682586 0 0 0 0
555031500 -0.030194318 0.095791864 0.02852715 -0.019472906 0 0 0 0
570031000 -0.03621566 0.093997992 0.026781234 -0.021985252 0 0 0 0
585030500 -0.043834156 0.0918442 0.025349588 -0.024171644 0 0 0 0
600030000 -0.049849212 0.092484192 0.023942176 -0.026524328 0 0 0 0
615029500 -0.058086104 0.09126652 0.021848418 -0.02826932 0 0 0 0
630029000 -0.065261476 0.095031952 0.01951953 -0.029738476 0 0 0 0
645028500 -0.072944024 0.096988736 0.017533972 -0.03125343 0 0 0 0
660028000 -0.078943176 0.100885424 0.014803444 -0.032337866 0 0 0 0
675027500 -0.08569948 0.10432528 0.01278126 -0.03363718 0 0 0 0
690027000 -0.091662024 0.109581128 0.010340956 -0.03411736 0 0 0 0
705026500 -0.097076424 0.114165408 0.007797062 -0.034217024 0 0 0 0
720026000 -0.103284912 0.120529416 0.004875741 -0.034460148 0 0 0 0
735025500 -0.106051784 0.125903208 0.002267331 -0.033652348 0 0 0 0
750025000 -0.109888856 0.132167784 6.3665e-05 -0.034178164 0 0 0 0
765024500 -0.113172432 0.13888272 -0.001426792 -0.032920394 0 0 0 0
780024000 -0.114250552 0.14570952 -0.003777133 -0.032253184 0 0 0 0
795023500 -0.116774144 0.15245392 -0.004905311 -0.031901528 0 0 0 0
810023000 -0.115651848 0.159571744 -0.007078244 -0.030794328 0 0 0 0
825022500 -0.115390104 0.16693504 -0.008053764 -0.030156012 0 0 0 0
840022000 -0.115521608 0.173640368 -0.009594632 -0.029522582 0 0 0 0
855021500 -0.11475952 0.180713632 -0.011293916 -0.028476626 0 0 0 0
870021000 -0.107093648 0.18861296 -0.010510456 -0.026840132 0 0 0 0
885020500 -0.106227688 0.19380072 -0.012297058 -0.026923216 0 0 0 0
900020000 -0.104327408 0.19785832 -0.01195177 -0.025256692 0 0 0 0
915019500 -0.101714904 0.204946976 -0.014331738 -0.023506334 0 0 0 0
930019000 -0.10057344 0.2124544 -0.014527806 -0.024167656 0 0 0 0
945018500 -0.0961288 0.221466144 -0.015964606 -0.022679162 0 0 0 0
960018000 -0.0952348 0.227931216 -0.017130634 -0.020966358 0 0 0 0
975017500 -0.08658456 0.235357664 -0.017255158 -0.021036762 0 0 0 0
990017000 -0.08446136 0.238458928 -0.018286056 -0.01862182 0 0 0 0
1005016500 -0.078988808 0.248659568 -0.01842299 -0.018171302 0 0 0 0
1020016000 -0.071514064 0.252638496 -0.020675052 -0.018343968 0 0 0 0
1035015500 -0.06442024 0.259471568 -0.022297994 -0.014514488 0 0 0 0
1050015000 -0.058470612 0.26969392 -0.020772808 -0.013971576 0 0 0 0
1065014500 -0.053366508 0.271790112 -0.02036842 -0.013382854 0 0 0 0
1080014000 -0.044911392 0.280356864 -0.020979802 -0.011955882 0 0 0 0
1095013500 -0.03776476 0.289483264 -0.022045834 -0.010503556 0 0 0 0
1110013000 -0.03079238 0.296287552 -0.021438528 -0.010806984 0 0 0 0
1125012500 -0.025169926 0.303170784 -0.022579212 -0.01014438 0 0 0 0
1140012000 -0.022366958 0.30973728 -0.022248056 -0.010873332 0 0 0 0
1155011500 -0.017100574 0.313343648 -0.02376122 -0.006920158 0 0 0 0
1170011000 -0.007230489 0.322938784 -0.023140252 -0.007939711 0 0 0 0
1185010500 -0.004884995 0.323980992 -0.022604558 -0.006037042 0 0 0 0
1200010000 0.008423104 0.324468832 -0.022855252 -0.005345186 0 0 0 0
1215009500 -0.005385429 0.345018048 -0.021106194 -0.00663034 0 0 0 0
1230009000 0.005159015 0.347345632 -0.021884582 -0.004787497 0 0 0 0
1245008500 0.017276072 0.345688256 -0.020786294 -0.004303932 0 0 0 0
1260008000 0.011305864 0.354574112 -0.022305438 -0.003438535 0 0 0 0
1275007500 0.015647754 0.345272448 -0.01923715 -0.00255711 0 0 0 0
1290007000 0.01092402 0.350208416 -0.021474006 0.00046175 0 0 0 0
1305006500 0.033468824 0.347100608 -0.022310432 -0.002101955 0 0 0 0
1320006000 0.024849812 0.35157376 -0.025962168 -0.004091985 0 0 0 0
1335005500 0.035390456 0.362599456 -0.022416096 -0.002905055 0 0 0 0
1350005000 0.043008456 0.371008576 -0.023481912 -0.003436247 0 0 0 0
1365004500 0.063213556 0.364701792 -0.023071676 0.004096903 0 0 0 0
1380004000 0.064423912 0.364173984 -0.023459424 0.002143942 0 0 0 0
1395003500 0.07382924 0.364785344 -0.025790114 0.003251672 0 0 0 0
1410003000 0.072952144 0.372904384 -0.023379028 0.003308392 0 0 0 0
1425002500 0.073853272 0.366067488 -0.02878407 0.006284158 0 0 0 0
1440002000 0.070502464 0.383204544 -0.02614759 0.009501988 0 0 0 0
1455001500 0.059560216 0.31596384 -0.020047832 -0.00094474 0 0 0 0
1470001000 0.125616328 0.295015968 -0.024192584 0.004173924 0 0 0 0
1485000500 0.13736472 0.309331808 -0.020073402 -7.1149e-05 0 0 0 0
1500000000 0.11787552 0.326172864 -0.028302352 0.006708965 0 0 0 0
