# HZ S RI R 50
50000 -0.000169244 -0.002775561 -6.5583e-05 4.62e-05 0 0 0 0
15049500 -0.129342304 -0.084487048 -0.000253973 -7.597e-05 0 0 0 0
30049000 -0.179544336 -0.01589065 -0.000582305 0.000300687 0 0 0 0
45048500 -0.16273144 0.018217502 -0.000456703 0.000610208 0 0 0 0
60048000 -0.144727568 0.028677918 -0.000243224 0.000562159 0 0 0 0
75047500 -0.130906984 0.028596408 -2.7531e-05 0.001226675 0 0 0 0
90047000 -0.122979224 0.023728664 -0.000495693 0.001361401 0 0 0 0
105046500 -0.120762032 0.01664383 -0.000320124 0.002180566 0 0 0 0
120046000 -0.123354448 0.009841706 0.000112823 0.002554803 0 0 0 0
135045500 -0.130190136 0.005174319 0.000527828 0.002720265 0 0 0 0
150045000 -0.139533344 0.004675253 0.001117689 0.002949792 0 0 0 0
165044500 -0.149084368 0.007369518 0.0015608 0.003085524 0 0 0 0
180044000 -0.157838304 0.013519776 0.002005905 0.002876201 0 0 0 0
195043500 -0.164840384 0.021773758 0.002324739 0.002850733 0 0 0 0
210043000 -0.169884368 0.03124518 0.002614211 0.002617667 0 0 0 0
225042500 -0.173612736 0.041389876 0.002963379 0.002409395 0 0 0 0
240042000 -0.176011376 0.051943252 0.003303119 0.002327616 0 0 0 0
255041500 -0.177202512 0.063210396 0.003609856 0.00210313 0 0 0 0
270041000 -0.176441008 0.07367772 0.0039 0.001612084 0 0 0 0
285040500 -0.174868144 0.083317128 0.003886092 0.001248306 0 0 0 0
300040000 -0.17299832 0.090877888 0.003821338 0.000612627 0 0 0 0
315039500 -0.170743104 0.09955416 0.003477389 0.000418216 0 0 0 0
330039000 -0.169958864 0.108709784 0.003589571 0.0008708 0 0 0 0
345038500 -0.166520896 0.117471016 0.003749994 0.000603767 0 0 0 0
360038000 -0.163503264 0.125797776 0.003990714 0.000554411 0 0 0 0
375037500 -0.161600352 0.133167776 0.004321819 0.000519923 0 0 0 0
390037000 -0.15827592 0.140299808 0.003968871 0.000487443 0 0 0 0
405036500 -0.15506712 0.147748352 0.004097598 0.000222174 0 0 0 0
420036000 -0.150915648 0.154787152 0.004482264 -5.3836e-05 0 0 0 0
435035500 -0.14733984 0.160985424 0.004677066 -0.000303498 0 0 0 0
450035000 -0.143544352 0.166982256 0.004517531 -0.000525488 0 0 0 0
465034500 -0.140356976 0.171322112 0.00465986 -0.000331234 0 0 0 0
480034000 -0.13691768 0.176687968 0.004561881 -0.001044048 0 0 0 0
495033500 -0.13306756 0.18484544 0.004413162 -0.001596289 0 0 0 0
510033000 -0.12863836 0.189600528 0.004395221 -0.001248643 0 0 0 0
525032500 -0.124204664 0.1949808 0.004363478 -0.001661531 0 0 0 0
540032000 -0.12144736 0.199699472 0.004452369 -0.001616669 0 0 0 0
555031500 -0.117737816 0.204746992 0.004593072 -0.002212256 0 0 0 0
570031000 -0.113948464 0.20842352 0.004590762 -0.002100427 0 0 0 0
585030500 -0.108582848 0.212588544 0.003981358 -0.002197283 0 0 0 0
600030000 -0.105853216 0.218742416 0.003958721 -0.002451071 0 0 0 0
615029500 -0.100821048 0.219331376 0.004210389 -0.002847649 0 0 0 0
630029000 -0.09646244 0.224105584 0.004464481 -0.002710903 0 0 0 0
645028500 -0.095333256 0.228297568 0.004624578 -0.003653097 0 0 0 0
660028000 -0.089660312 0.231938432 0.004238551 -0.003841547 0 0 0 0
675027500 -0.0862968 0.235580736 0.004194865 -0.003997387 0 0 0 0
690027000 -0.0829802 0.237378368 0.003441832 -0.004662812 0 0 0 0
705026500 -0.078338168 0.240608544 0.003708566 -0.004489968 0 0 0 0
720026000 -0.074702336 0.2456472 0.002953736 -0.005428039 0 0 0 0
735025500 -0.06707166 0.249541088 0.002364398 -0.00455161 0 0 0 0
750025000 -0.063130892 0.250896512 0.002011057 -0.004836394 0 0 0 0
765024500 -0.056642488 0.25028584 0.002092087 -0.004628141 0 0 0 0
780024000 -0.052989124 0.253711824 0.002418859 -0.004178008 0 0 0 0
795023500 -0.04918232 0.254588304 0.001773268 -0.004595472 0 0 0 0
810023000 -0.04470386 0.257305056 0.002442084 -0.004848448 0 0 0 0
825022500 -0.03910556 0.257685936 0.001271046 -0.004723382 0 0 0 0
840022000 -0.034509428 0.25975752 0.00232373 -0.004649334 0 0 0 0
855021500 -0.02925812 0.259270912 0.00148839 -0.00507158 0 0 0 0
870021000 -0.021441598 0.253999056 0.000915994 -0.004816737 0 0 0 0
885020500 -0.018391272 0.251385696 0.002940013 -0.003173397 0 0 0 0
900020000 -0.015652696 0.25361624 0.002103579 -0.003739359 0 0 0 0
915019500 -0.011006826 0.252675648 0.002347016 -0.003475227 0 0 0 0
930019000 -0.000558295 0.252419856 0.002611053 -0.004427249 0 0 0 0
945018500 0.003538297 0.2553528 0.00218222 -0.00511119 0 0 0 0
960018000 0.004503514 0.252014544 0.001728381 -0.00713343 0 0 0 0
975017500 0.008101363 0.255331552 0.001418153 -0.007133726 0 0 0 0
990017000 0.013858896 0.254580528 0.00098614 -0.005938646 0 0 0 0
1005016500 0.01766681 0.254943968 0.002052685 -0.006066764 0 0 0 0
1020016000 0.01951849 0.259206448 0.000789139 -0.006591585 0 0 0 0
1035015500 0.02506639 0.261225376 0.001152838 -0.005727882 0 0 0 0
1050015000 0.03268569 0.256746448 0.001073166 -0.007940605 0 0 0 0
1065014500 0.03574738 0.259083696 0.000162518 -0.006905531 0 0 0 0
1080014000 0.041265728 0.26356608 -0.000581597 -0.007178788 0 0 0 0
1095013500 0.048810704 0.264528656 -0.001416978 -0.006820992 0 0 0 0
1110013000 0.04807738 0.270868672 -0.001232838 -0.007254417 0 0 0 0
1125012500 0.054183584 0.274791584 -0.000774287 -0.006793713 0 0 0 0
1140012000 0.059023404 0.276882208 -0.001710392 -0.007863645 0 0 0 0
1155011500 0.064359524 0.278814272 -0.001866485 -0.007031334 0 0 0 0
1170011000 0.062977172 0.281472 -0.002764725 -0.006934121 0 0 0 0
1185010500 0.068606992 0.294341504 -0.002899244 -0.006485464 0 0 0 0
1200010000 0.071345272 0.278769216 -0.005428887 -0.009799264 0 0 0 0
1215009500 0.067299808 0.303986528 -0.004014508 -0.009190838 0 0 0 0
1230009000 0.0658148 0.2953704 -0.00438387 -0.007894615 0 0 0 0
1245008500 0.074053848 0.29157632 -0.005578067 -0.008348448 0 0 0 0
1260008000 0.06532198 0.301500704 -0.005286787 -0.006084324 0 0 0 0
1275007500 0.069857984 0.29549696 -0.007729983 -0.005517354 0 0 0 0
1290007000 0.06666182 0.294706048 -0.00795084 -0.008156234 0 0 0 0
1305006500 0.071267944 0.29194112 -0.004840993 -0.008272541 0 0 0 0
1320006000 0.061538532 0.289959104 -0.00610266 -0.006485697 0 0 0 0
1335005500 0.071559224 0.292918208 -0.006311781 -0.009642256 0 0 0 0
1350005000 0.07580872 0.29634576 -0.004339525 -0.006035138 0 0 0 0
1365004500 0.078614496 0.29443328 -0.00997853 -0.008423224 0 0 0 0
1380004000 0.087513216 0.294207232 -0.00889502 -0.009119338 0 0 0 0
1395003500 0.095923264 0.291478656 -0.009574136 -0.007782243 0 0 0 0
1410003000 0.096152864 0.293129408 -0.01045985 -0.007471632 0 0 0 0
1425002500 0.09870464 0.300733408 -0.008542254 -0.011196134 0 0 0 0
1440002000 0.089260504 0.286122784 -0.013802228 -0.008928424 0 0 0 0
1455001500 0.048668524 0.25639296 -0.013176044 -0.006888454 0 0 0 0
1470001000 0.105362344 0.289538816 -0.013207534 -0.01668238 0 0 0 0
1485000500 0.085530648 0.263125872 -0.00713087 -0.007516094 0 0 0 0
1500000000 0.117636192 0.271174752 -0.022835818 -0.002880739 0 0 0 0
