# HZ S RI R 50
50000 -0.234331392 0.000540239 -0.000131802 9.9675e-05 0 0 0 0
15049500 -0.233094912 0.012726442 0.01202163 -0.07935824 0 0 0 0
30049000 -0.231191136 0.025559546 0.058403224 -0.214880352 0 0 0 0
45048500 -0.227445392 0.038461456 0.005279765 -0.382173216 0 0 0 0
60048000 -0.222419968 0.050558752 -0.111278832 -0.535990592 0 0 0 0
75047500 -0.215122912 0.062196124 -0.288109312 -0.654822208 0 0 0 0
90047000 -0.206549664 0.07169324 -0.50934864 -0.716251648 0 0 0 0
105046500 -0.19772056 0.07904188 -0.724873216 -0.685394368 0 0 0 0
120046000 -0.188197888 0.083534744 -0.942912128 -0.586089024 0 0 0 0
135045500 -0.180027104 0.085612456 -1.121504184 -0.42327232 0 0 0 0
150045000 -0.173444656 0.086793184 -1.240982048 -0.221878848 0 0 0 0
165044500 -0.16894856 0.086952736 -1.295479904 -0.002980709 0 0 0 0
180044000 -0.166161792 0.087744768 -1.297064064 0.201462336 0 0 0 0
195043500 -0.164425696 0.08912364 -1.258169536 0.381381152 0 0 0 0
210043000 -0.163457872 0.091589704 -1.192523472 0.534351104 0 0 0 0
225042500 -0.16292472 0.094739664 -1.110527512 0.660982208 0 0 0 0
240042000 -0.162960976 0.099039312 -1.020401478 0.764556544 0 0 0 0
255041500 -0.162761264 0.1046408 -0.925905024 0.848264832 0 0 0 0
270041000 -0.160528624 0.110908128 -0.827069568 0.91343328 0 0 0 0
285040500 -0.158528768 0.114776912 -0.739761792 0.961787008 0 0 0 0
300040000 -0.156307568 0.119828928 -0.61782656 0.980434368 0 0 0 0
315039500 -0.156136848 0.124452048 -0.529206944 1.008112192 0 0 0 0
330039000 -0.155069168 0.13040464 -0.444168384 1.028216362 0 0 0 0
345038500 -0.153533616 0.136198816 -0.360113344 1.039380788 0 0 0 0
360038000 -0.151523216 0.14210512 -0.27873312 1.044327976 0 0 0 0
375037500 -0.149393248 0.148615232 -0.203285104 1.044192432 0 0 0 0
390037000 -0.147788272 0.15297424 -0.13430104 1.03822744 0 0 0 0
405036500 -0.145011104 0.15985 -0.058738948 1.026892066 0 0 0 0
420036000 -0.142580304 0.16573736 0.011190862 1.01207161 0 0 0 0
435035500 -0.140081008 0.171744752 0.076868352 0.991836416 0 0 0 0
450035000 -0.137523424 0.177031552 0.141567824 0.968482944 0 0 0 0
465034500 -0.136347504 0.183575904 0.195868432 0.946566016 0 0 0 0
480034000 -0.132869632 0.188826368 0.250014928 0.912197056 0 0 0 0
495033500 -0.129904672 0.193519664 0.298569024 0.870167168 0 0 0 0
510033000 -0.126861248 0.199353584 0.34534928 0.831876544 0 0 0 0
525032500 -0.123747664 0.204654 0.38587056 0.795747776 0 0 0 0
540032000 -0.1216366 0.209439152 0.422378592 0.761283072 0 0 0 0
555031500 -0.118170712 0.2142032 0.459471936 0.726797312 0 0 0 0
570031000 -0.115004504 0.218945904 0.494735968 0.69102336 0 0 0 0
585030500 -0.112245792 0.223481504 0.525890112 0.65527968 0 0 0 0
600030000 -0.108047944 0.229374976 0.556699904 0.618071488 0 0 0 0
615029500 -0.104585728 0.233830864 0.5838448 0.579825024 0 0 0 0
630029000 -0.100940856 0.238980576 0.6101392 0.541373184 0 0 0 0
645028500 -0.09750936 0.24285256 0.633280512 0.502775008 0 0 0 0
660028000 -0.093303536 0.24561616 0.65183168 0.462301152 0 0 0 0
675027500 -0.08974668 0.250279936 0.66996448 0.423209984 0 0 0 0
690027000 -0.085142 0.254027728 0.687486912 0.382832928 0 0 0 0
705026500 -0.079324808 0.256616704 0.700154624 0.34413712 0 0 0 0
720026000 -0.073598912 0.258900224 0.710585664 0.301621408 0 0 0 0
735025500 -0.068642352 0.261499232 0.72004992 0.261718448 0 0 0 0
750025000 -0.062383276 0.263245936 0.727060608 0.217540528 0 0 0 0
765024500 -0.058985324 0.26521576 0.731257216 0.178464592 0 0 0 0
780024000 -0.053829716 0.266166688 0.729592832 0.1302688 0 0 0 0
795023500 -0.048082644 0.268419536 0.73063424 0.090207776 0 0 0 0
810023000 -0.042054508 0.269485184 0.723412352 0.049556924 0 0 0 0
825022500 -0.037116924 0.27159664 0.71450336 0.007671863 0 0 0 0
840022000 -0.033268858 0.273378752 0.706659648 -0.023032248 0 0 0 0
855021500 -0.027581798 0.274099648 0.69248256 -0.0634335 0 0 0 0
870021000 -0.01790152 0.27310448 0.706902784 -0.004154801 0 0 0 0
885020500 -0.022277654 0.270944576 0.690468224 -0.034271076 0 0 0 0
900020000 -0.01365874 0.271258304 0.685121216 -0.06557794 0 0 0 0
915019500 -0.005924947 0.268310848 0.677382208 -0.112117392 0 0 0 0
930019000 -0.0025446 0.268325952 0.665538816 -0.14807912 0 0 0 0
945018500 0.002138925 0.272934944 0.648831616 -0.175846272 0 0 0 0
960018000 0.008473892 0.273400448 0.629706624 -0.210014288 0 0 0 0
975017500 0.01476384 0.270234272 0.605435456 -0.24305192 0 0 0 0
990017000 0.019509118 0.269650624 0.580029952 -0.26899616 0 0 0 0
1005016500 0.027291192 0.271099488 0.552598272 -0.294845024 0 0 0 0
1020016000 0.030904022 0.270129888 0.520077696 -0.31626352 0 0 0 0
1035015500 0.04264828 0.272451584 0.48971152 -0.34231824 0 0 0 0
1050015000 0.049634276 0.27789616 0.455040032 -0.360985056 0 0 0 0
1065014500 0.050696756 0.276610688 0.428363168 -0.381002944 0 0 0 0
1080014000 0.059173212 0.277871936 0.398869408 -0.398108672 0 0 0 0
1095013500 0.063951476 0.275372768 0.37043776 -0.41838336 0 0 0 0
1110013000 0.069626976 0.28002896 0.345481152 -0.434539904 0 0 0 0
1125012500 0.070404904 0.281726112 0.319498432 -0.45119008 0 0 0 0
1140012000 0.07502184 0.286438272 0.297486656 -0.473708032 0 0 0 0
1155011500 0.0762622 0.289722688 0.270270656 -0.47867152 0 0 0 0
1170011000 0.084506464 0.289430624 0.251675104 -0.516340256 0 0 0 0
1185010500 0.084817744 0.29399008 0.235936944 -0.52163376 0 0 0 0
1200010000 0.075968808 0.28319184 0.211063584 -0.541162944 0 0 0 0
1215009500 0.080298072 0.29171744 0.194958272 -0.552760704 0 0 0 0
1230009000 0.091371592 0.296164864 0.174338384 -0.56717344 0 0 0 0
1245008500 0.085136832 0.293320256 0.143403024 -0.579252928 0 0 0 0
1260008000 0.089136696 0.291106208 0.11402184 -0.578693952 0 0 0 0
1275007500 0.086679776 0.303135392 0.08521812 -0.593245504 0 0 0 0
1290007000 0.079097544 0.288509024 0.052642852 -0.60232192 0 0 0 0
1305006500 0.100920584 0.30180336 0.01385694 -0.597542656 0 0 0 0
1320006000 0.09704468 0.294076544 -0.012317544 -0.598632256 0 0 0 0
1335005500 0.095468376 0.291246592 -0.04243698 -0.583762496 0 0 0 0
1350005000 0.099387928 0.3045288 -0.069722832 -0.583712768 0 0 0 0
1365004500 0.105581592 0.289236192 -0.067680136 -0.582078848 0 0 0 0
1380004000 0.11299536 0.29576928 -0.109036176 -0.54771648 0 0 0 0
1395003500 0.111659464 0.295066592 -0.114304576 -0.527604576 0 0 0 0
1410003000 0.114030584 0.299861088 -0.140408992 -0.530545344 0 0 0 0
1425002500 0.110716104 0.293115104 -0.151933392 -0.493921888 0 0 0 0
1440002000 0.12047476 0.30370016 -0.142168592 -0.47538368 0 0 0 0
1455001500 0.137543632 0.2115096 -0.30391792 -0.512641312 0 0 0 0
1470001000 0.12959056 0.260048336 -0.312649824 -0.47538576 0 0 0 0
1485000500 0.131969544 0.262885504 -0.35295488 -0.448844128 0 0 0 0
1500000000 0.15195608 0.25188672 -0.352882912 -0.423099744 0 0 0 0
