# HZ S RI R 50
400000000 -0.46965344 -0.02239775 0.29344416 -0.84699904 0 0 0 0
410000000 -0.474233632 0.000115738 0.260664224 -0.862603456 0 0 0 0
420000000 -0.47800528 0.020678154 0.22294232 -0.875804544 0 0 0 0
430000000 -0.481164352 0.041111852 0.186255872 -0.882120448 0 0 0 0
440000000 -0.483844256 0.061486488 0.149922352 -0.888908928 0 0 0 0
450000000 -0.48603296 0.081645984 0.1103762 -0.890447616 0 0 0 0
460000000 -0.489467392 0.100074568 0.073448848 -0.891466624 0 0 0 0
470000000 -0.493976768 0.116109168 0.035614924 -0.88577344 0 0 0 0
480000000 -0.496710176 0.134692064 -0.003532499 -0.884040896 0 0 0 0
490000000 -0.504674144 0.153342112 -0.041833548 -0.878491776 0 0 0 0
500000000 -0.512338816 0.176280384 -0.08122796 -0.869324352 0 0 0 0
510000000 -0.521305376 0.199328656 -0.122026296 -0.855429504 0 0 0 0
520000000 -0.545165568 0.215736208 -0.161962448 -0.83739712 0 0 0 0
530000000 -0.539243648 0.257204624 -0.1994104 -0.818497536 0 0 0 0
540000000 -0.54636192 0.289610336 -0.235226128 -0.792001344 0 0 0 0
550000000 -0.538796096 0.335374368 -0.267368592 -0.761548352 0 0 0 0
560000000 -0.530898624 0.37553504 -0.293472544 -0.727745984 0 0 0 0
570000000 -0.513959584 0.41273136 -0.313882464 -0.691765568 0 0 0 0
580000000 -0.490708576 0.434931968 -0.32920064 -0.655484416 0 0 0 0
590000000 -0.475224608 0.453871136 -0.33746928 -0.619853504 0 0 0 0
600000000 -0.465029632 0.477921472 -0.343724416 -0.584565568 0 0 0 0
610000000 -0.448836384 0.507681728 -0.347918112 -0.553580864 0 0 0 0
620000000 -0.434002976 0.532926752 -0.34817792 -0.526469952 0 0 0 0
630000000 -0.416428128 0.5607056 -0.346312928 -0.500749952 0 0 0 0
640000000 -0.398766752 0.590634112 -0.341429248 -0.477933088 0 0 0 0
650000000 -0.373046592 0.619367424 -0.33529456 -0.45705472 0 0 0 0
660000000 -0.34712736 0.646785408 -0.33436624 -0.437836192 0 0 0 0
670000000 -0.322942464 0.670910272 -0.32850432 -0.419770688 0 0 0 0
680000000 -0.297917696 0.698137792 -0.323784992 -0.405919616 0 0 0 0
690000000 -0.26878976 0.718681536 -0.31894528 -0.392532928 0 0 0 0
700000000 -0.232208176 0.741446656 -0.315329088 -0.382303136 0 0 0 0
710000000 -0.194750976 0.762309824 -0.31197216 -0.373155008 0 0 0 0
720000000 -0.157183232 0.781655168 -0.31022848 -0.36321424 0 0 0 0
730000000 -0.116714704 0.799375488 -0.310880832 -0.355398528 0 0 0 0
740000000 -0.076430832 0.81583808 -0.3116944 -0.347404352 0 0 0 0
750000000 -0.03398494 0.829163648 -0.312472128 -0.338415072 0 0 0 0
760000000 0.00933251 0.838841792 -0.317234688 -0.33038672 0 0 0 0
770000000 0.056615684 0.846129728 -0.322553952 -0.320200128 0 0 0 0
780000000 0.102223736 0.850459392 -0.329403872 -0.307398752 0 0 0 0
790000000 0.148379152 0.8525936 -0.335173088 -0.29284352 0 0 0 0
800000000 0.195560496 0.852468224 -0.340056352 -0.274745856 0 0 0 0
810000000 0.243177952 0.8478176 -0.346848832 -0.253621824 0 0 0 0
820000000 0.290976 0.840674176 -0.350763104 -0.228716256 0 0 0 0
830000000 0.340478816 0.831281856 -0.35080208 -0.202735632 0 0 0 0
840000000 0.390199392 0.816170304 -0.34566256 -0.173387616 0 0 0 0
850000000 0.435606144 0.80271424 -0.337809952 -0.144118704 0 0 0 0
860000000 0.483671008 0.781975424 -0.323926112 -0.114312448 0 0 0 0
870000000 0.53208752 0.76015936 -0.304967104 -0.086414344 0 0 0 0
880000000 0.601486016 0.701361664 -0.291761824 -0.05473934 0 0 0 0
890000000 0.64645184 0.661686848 -0.266015744 -0.033828312 0 0 0 0
900000000 0.691583616 0.623493824 -0.234965264 -0.017741956 0 0 0 0
910000000 0.74019584 0.576417664 -0.201893296 -0.012375602 0 0 0 0
920000000 0.771248192 0.528244384 -0.168704992 -0.003268636 0 0 0 0
930000000 0.813599232 0.472485856 -0.134869808 -0.004709902 0 0 0 0
940000000 0.845352192 0.414668 -0.101880904 -0.013581504 0 0 0 0
950000000 0.873621888 0.352321472 -0.069005976 -0.026987042 0 0 0 0
960000000 0.895390784 0.29016064 -0.040837436 -0.045449548 0 0 0 0
970000000 0.911276992 0.221653984 -0.014006216 -0.069869304 0 0 0 0
980000000 0.922588608 0.153775216 0.00869918 -0.097039464 0 0 0 0
990000000 0.919964288 0.087211928 0.026796944 -0.12540896 0 0 0 0
1000000000 0.918528512 0.023500916 0.041430724 -0.155922256 0 0 0 0
1010000000 0.911824832 -0.038258028 0.050896464 -0.187116736 0 0 0 0
1020000000 0.897070592 -0.0992222 0.056999156 -0.223657376 0 0 0 0
1030000000 0.88150944 -0.157326752 0.059097104 -0.25634232 0 0 0 0
1040000000 0.85625472 -0.210296336 0.058865508 -0.291685696 0 0 0 0
1050000000 0.840689536 -0.255683568 0.052530996 -0.328350304 0 0 0 0
1060000000 0.811273472 -0.302692288 0.040620908 -0.366404416 0 0 0 0
1070000000 0.781077056 -0.348243296 0.021582082 -0.403408576 0 0 0 0
1080000000 0.749244672 -0.391301376 -0.00131166 -0.435212 0 0 0 0
1090000000 0.715265088 -0.424482976 -0.03333138 -0.46257968 0 0 0 0
1100000000 0.683332928 -0.462865696 -0.0626297 -0.4868064 0 0 0 0
1110000000 0.64229408 -0.492275104 -0.10133436 -0.50515808 0 0 0 0
1120000000 0.606445696 -0.518503008 -0.14541208 -0.520707488 0 0 0 0
1130000000 0.557275264 -0.539269376 -0.18829792 -0.524735264 0 0 0 0
1140000000 0.518973216 -0.56032704 -0.226720192 -0.525804512 0 0 0 0
1150000000 0.47652224 -0.570991296 -0.263866304 -0.519485664 0 0 0 0
1160000000 0.431302752 -0.582408448 -0.3062792 -0.511060128 0 0 0 0
1170000000 0.394556576 -0.590563392 -0.347774016 -0.50096096 0 0 0 0
1180000000 0.344969696 -0.594972864 -0.38552272 -0.487477824 0 0 0 0
1190000000 0.311637344 -0.58618112 -0.430326752 -0.46892624 0 0 0 0
1200000000 0.271588608 -0.585604096 -0.454974944 -0.447121312 0 0 0 0
1210000000 0.23707856 -0.569199296 -0.484780224 -0.425023776 0 0 0 0
1220000000 0.20315712 -0.558563584 -0.512766368 -0.40496208 0 0 0 0
1230000000 0.181483392 -0.566665216 -0.539447808 -0.391672352 0 0 0 0
1240000000 0.166331392 -0.556537792 -0.562636032 -0.372326496 0 0 0 0
1250000000 0.14209016 -0.547299968 -0.589547264 -0.35850336 0 0 0 0
1260000000 0.121808824 -0.525352832 -0.614649792 -0.337029152 0 0 0 0
1270000000 0.119636864 -0.530353056 -0.631177664 -0.317005344 0 0 0 0
1280000000 0.106144632 -0.53133792 -0.651037824 -0.296580352 0 0 0 0
1290000000 0.081648808 -0.541099968 -0.66374944 -0.270306016 0 0 0 0
1300000000 0.073728632 -0.529349632 -0.683632384 -0.253999376 0 0 0 0
1310000000 0.05748196 -0.540875136 -0.700120448 -0.23174008 0 0 0 0
1320000000 0.05769292 -0.54365472 -0.707482112 -0.210812128 0 0 0 0
1330000000 0.033753148 -0.554791808 -0.717174272 -0.18982584 0 0 0 0
1340000000 0.023701636 -0.575271872 -0.716884864 -0.167515344 0 0 0 0
1350000000 0.010575152 -0.583962816 -0.717058688 -0.13152364 0 0 0 0
1360000000 -0.007075155 -0.584896064 -0.722737024 -0.119387448 0 0 0 0
1370000000 -0.014487978 -0.58715296 -0.715868736 -0.092738616 0 0 0 0
1380000000 -0.037330176 -0.59226496 -0.711622208 -0.064034208 0 0 0 0
1390000000 -0.074084184 -0.59963776 -0.70069888 -0.025405788 0 0 0 0
1400000000 -0.094058056 -0.594088768 -0.675283904 0.004262798 0 0 0 0
