# HZ S RI R 50
400000000 0.997143424 0.002104065
410000000 0.995980864 0.005448669
420000000 0.996906752 0.005874854
430000000 0.999728768 0.009327242
440000000 0.995210112 0.007434916
450000000 0.997353536 0.011996914
460000000 0.997142912 0.012282392
470000000 0.993777664 0.015208804
480000000 0.99484768 0.017691124
490000000 0.992629824 0.020915074
500000000 0.989726976 0.031116772
510000000 0.99228512 0.04105776
520000000 1.008032441 0.049253824
530000000 1.016049624 0.060667524
540000000 1.031933308 0.058926416
550000000 1.051744224 0.048511632
560000000 1.055810928 0.03079807
570000000 1.059994936 0.020043996
580000000 1.059862852 0.007597153
590000000 1.05223334 -0.001352362
600000000 1.044734596 -0.002384188
610000000 1.039027332 -0.006949898
620000000 1.036277772 -0.006157607
630000000 1.03409314 -0.008937996
640000000 1.03081286 -0.00781113
650000000 1.03137958 -0.010512682
660000000 1.028565168 -0.00869556
670000000 1.027669072 -0.007947644
680000000 1.027615548 -0.00863012
690000000 1.026377082 -0.009388084
700000000 1.025427938 -0.009043054
710000000 1.025417328 -0.009035946
720000000 1.023842812 -0.010782052
730000000 1.024359108 -0.009951008
740000000 1.024846554 -0.011746614
750000000 1.02421546 -0.010712966
760000000 1.023156882 -0.01402323
770000000 1.023064256 -0.014375646
780000000 1.021512746 -0.012684996
790000000 1.020099164 -0.015454448
800000000 1.02280736 -0.015111128
810000000 1.020263434 -0.014557124
820000000 1.02031219 -0.017813972
830000000 1.01729238 -0.01710591
840000000 1.018744708 -0.015487274
850000000 1.017197012 -0.018282088
860000000 1.015115976 -0.020509244
870000000 1.014179468 -0.017772012
880000000 1.004844904 -0.023496
890000000 1.007567168 -0.022206064
900000000 1.006696224 -0.017543364
910000000 1.013136148 -0.011780154
920000000 1.010457516 -0.017610648
930000000 1.007461787 -0.020496894
940000000 1.01001072 -0.018201156
950000000 1.011706234 -0.01915459
960000000 1.010579468 -0.01523153
970000000 1.011890888 -0.020947018
980000000 1.007401705 -0.023074306
990000000 1.003040433 -0.021712634
1000000000 1.005678535 -0.021072274
1010000000 1.00025022 -0.020526632
1020000000 0.998331584 -0.020998522
1030000000 0.997251072 -0.019707408
1040000000 0.99811808 -0.02154976
1050000000 0.994760384 -0.016903446
1060000000 0.993966784 -0.013604368
1070000000 0.999469248 -0.01412362
1080000000 0.99908608 -0.012704774
1090000000 0.998006976 -0.008326624
1100000000 0.999676672 -0.01080638
1110000000 1.001205444 -0.006640199
1120000000 0.992829888 -0.007544334
1130000000 1.001972914 -0.009268524
1140000000 1.001494646 -0.00605953
1150000000 0.997568704 -0.003071991
1160000000 0.997389184 -0.006414791
1170000000 1.001797319 -0.00386747
1180000000 0.999801024 -0.004512139
1190000000 0.99765408 -0.003068979
1200000000 1.004297495 -0.002747885
1210000000 0.999707968 0.004252967
1220000000 0.992725696 0.003783116
1230000000 0.998952768 -0.003645469
1240000000 1.004382849 -0.002073108
1250000000 0.995131584 0.002132289
1260000000 0.997714624 -0.006215074
1270000000 0.991473088 -0.002695697
1280000000 1.004692555 0.004830297
1290000000 0.998406336 0.007445241
1300000000 0.992137152 0.01164776
1310000000 1.005988002 0.01631092
1320000000 0.996079616 0.002887042
1330000000 0.99611104 0.004383399
1340000000 1.008492708 0.00366077
1350000000 1.01053095 8.5047e-05
1360000000 1.0073843 -0.004649133
1370000000 1.002874732 0.007898717
1380000000 1.005302191 -0.001699083
1390000000 0.999877376 0.004654937
1400000000 0.996441344 -0.003942737
