! Mini-Circuits
! S2P DATA File Format
! Unit Family Type: Amplifier
! MCL Part No: TAMP-72LN+
! Note: All S Parameters are in dB deg format
! The Unit was tested at +85 °C
!
# MHz S DB R 50
!    FREQ       dB(S11)   PHS(S11)  dB(S21)   PHS(S21)  dB(S12)   PHS(S12)  dB(S22)   PHS(S22) 
     10         -1.58     174.05    -12.9     -35.98    -49.75    -49.75    -0.2      -37.21 
     20         -1.66     168.74    3.44      -55.03    -56.01    -56.01    -2.87     -80.8  
     30         -1.76     163.32    8.94      -74.85    -47.97    -47.97    -8.33     -120.2 
     40         -1.87     157.9     11.88     -89.72    -44.75    -44.75    -16.72    -161.04
     50         -2.01     152.53    13.88     -100.55   -41.7     -41.7     -23.61    100.17 
     60         -2.16     147       15.36     -109.64   -41.16    -41.16    -17.97    43.81  
     70         -2.38     141.73    16.58     -116.98   -38.83    -38.83    -14.76    23.19  
     80         -2.62     136.36    17.61     -123.96   -37.25    -37.25    -13.09    9.95   
     90         -2.92     131.16    18.47     -130.52   -36.05    -36.05    -12.02    -1.08  
     100        -3.25     126.04    19.21     -136.83   -35.01    -35.01    -11.35    -10.59 
     110        -3.65     120.95    19.86     -143.04   -33.95    -33.95    -10.9     -19.56 
     120        -4.1      116.02    20.38     -149.1    -33.03    -33.03    -10.64    -27.81 
     130        -4.59     111.61    20.81     -154.82   -32.27    -32.27    -10.43    -35.48 
     140        -5.14     107.03    21.17     -160.51   -31.52    -31.52    -10.4     -43.48 
     150        -5.74     102.88    21.45     -165.99   -30.87    -30.87    -10.43    -50.76 
     160        -6.35     98.94     21.68     -171.21   -30.39    -30.39    -10.51    -57.89 
     170        -6.99     95.29     21.86     -176.3    -29.94    -29.94    -10.65    -64.65 
     180        -7.68     92.19     21.98     178.87    -29.57    -29.57    -10.76    -71.03 
     190        -8.37     89.3      22.07     174.24    -29.16    -29.16    -11       -77.36 
     200        -9.08     86.67     22.13     169.81    -28.86    -28.86    -11.23    -83.48 
     210        -9.8      84.36     22.17     165.56    -28.54    -28.54    -11.51    -89.13 
     220        -10.57    82.49     22.18     161.46    -28.25    -28.25    -11.8     -94.51 
     230        -11.35    80.57     22.18     157.48    -28.08    -28.08    -12.06    -99.87 
     240        -12.09    79.32     22.15     153.74    -27.87    -27.87    -12.43    -104.62
     250        -12.84    78.03     22.12     150.08    -27.68    -27.68    -12.71    -109.2 
     260        -13.58    76.94     22.05     146.62    -27.52    -27.52    -12.97    -113.61
     270        -14.37    77        21.99     143.44    -27.45    -27.45    -13.15    -119.19
     280        -15.01    76.45     21.94     140.19    -27.19    -27.19    -13.57    -123.68
     290        -15.71    76.96     21.87     137.11    -27.09    -27.09    -13.85    -127.78
     300        -16.35    76.98     21.82     134.06    -26.97    -26.97    -14.2     -132.07
     310        -16.97    77.94     21.75     131.1     -26.87    -26.87    -14.55    -135.68
     320        -17.46    79.6      21.66     128.3     -26.82    -26.82    -14.75    -139.03
     330        -18.06    80.64     21.6      125.52    -26.67    -26.67    -15.15    -142.47
     340        -18.55    82.24     21.52     122.82    -26.6     -26.6     -15.47    -146.38
     350        -19.07    84.57     21.44     120.13    -26.46    -26.46    -15.74    -149.73
     360        -19.47    86.07     21.36     117.54    -26.32    -26.32    -16.14    -153.41
     370        -19.94    88.2      21.28     114.96    -26.27    -26.27    -16.48    -155.89
     380        -20.19    90.8      21.2      112.45    -26.17    -26.17    -16.76    -158.74
     390        -20.43    92.9      21.11     109.98    -26.14    -26.14    -17.1     -161.98
     400        -20.68    94.97     21.04     107.57    -25.97    -25.97    -17.33    -164.56
     410        -20.85    96.91     20.95     105.23    -25.86    -25.86    -17.71    -168.12
     420        -20.88    99.39     20.87     102.89    -25.86    -25.86    -18.16    -170.33
     430        -20.95    101.61    20.79     100.55    -25.72    -25.72    -18.4     -173.48
     440        -20.96    103.13    20.71     98.29     -25.63    -25.63    -18.78    -175.83
     450        -20.99    105.64    20.62     96.02     -25.57    -25.57    -19.03    -178.72
     460        -20.94    107.49    20.55     93.81     -25.49    -25.49    -19.33    178.45 
     470        -20.91    108.92    20.47     91.65     -25.41    -25.41    -19.74    176.04 
     480        -20.81    111.21    20.38     89.48     -25.3     -25.3     -20.16    172.86 
     490        -20.66    111.85    20.3      87.35     -25.25    -25.25    -20.52    170.35 
     500        -20.7     113.26    20.22     85.22     -25.17    -25.17    -20.91    167.93 
     510        -20.51    114.24    20.15     83.06     -25.07    -25.07    -21.25    166.05 
     520        -20.46    115.22    20.07     80.99     -24.99    -24.99    -21.64    163.31 
     530        -20.38    115.31    19.98     78.95     -24.92    -24.92    -22.18    160.77 
     540        -20.2     116.51    19.9      76.94     -24.84    -24.84    -22.42    158.58 
     550        -20.07    116.27    19.82     74.94     -24.79    -24.79    -22.9     156.05 
     560        -20.01    116.96    19.74     72.91     -24.67    -24.67    -23.27    154.18 
     570        -19.86    117.34    19.66     70.94     -24.57    -24.57    -23.74    151.58 
     580        -19.77    117.21    19.59     68.98     -24.5     -24.5     -24.17    148.21 
     590        -19.62    117.33    19.5      67.05     -24.45    -24.45    -24.67    146.5  
     600        -19.54    117.15    19.43     65.14     -24.37    -24.37    -25.09    144.9  
     610        -19.47    117.08    19.35     63.25     -24.28    -24.28    -25.54    142.46 
     620        -19.34    117.13    19.28     61.28     -24.2     -24.2     -25.95    141.08 
     630        -19.26    116.91    19.2      59.39     -24.15    -24.15    -26.6     139.39 
     640        -19.2     116.41    19.12     57.46     -24.05    -24.05    -27.03    137.61 
     650        -19.16    115.7     19.05     55.62     -23.99    -23.99    -27.66    135.97 
     660        -19.06    115.15    18.97     53.74     -23.92    -23.92    -28.14    133.94 
     670        -18.99    114.64    18.9      51.91     -23.86    -23.86    -28.99    132.31 
     680        -18.84    113.85    18.82     50.07     -23.78    -23.78    -29.12    130.42 
     690        -18.74    113.88    18.74     48.23     -23.66    -23.66    -29.88    130.95 
     700        -18.69    113.09    18.67     46.43     -23.6     -23.6     -30.56    128.79 
     710        -18.58    112.05    18.59     44.63     -23.56    -23.56    -31.25    127.07 
     720        -18.49    111.66    18.52     42.85     -23.52    -23.52    -32.03    126.2  
     730        -18.37    110.47    18.44     41.08     -23.4     -23.4     -32.42    125.51 
     740        -18.21    109.77    18.37     39.28     -23.36    -23.36    -32.82    123.37 
     750        -18.24    109.04    18.3      37.53     -23.27    -23.27    -33.77    123.99 
     760        -18.16    108.33    18.22     35.8      -23.18    -23.18    -34.74    122.82 
     770        -18.08    107.45    18.15     34.06     -23.1     -23.1     -35.51    120.68 
     780        -18       106.82    18.08     32.27     -23.06    -23.06    -36.64    127.56 
     790        -17.97    106.23    18.01     30.56     -22.98    -22.98    -37.22    132.72 
     800        -17.86    105.06    17.93     28.83     -22.92    -22.92    -37.78    131.06 
     810        -17.8     104.26    17.86     27.12     -22.86    -22.86    -39.93    129.61 
     820        -17.74    103.16    17.8      25.42     -22.79    -22.79    -40.34    133.2  
     830        -17.7     102.46    17.72     23.75     -22.71    -22.71    -42.23    138.95 
     840        -17.6     101.28    17.65     22.05     -22.65    -22.65    -42.16    147.36 
     850        -17.56    100.84    17.59     20.36     -22.57    -22.57    -42.65    153.12 
     860        -17.51    99.99     17.52     18.65     -22.54    -22.54    -41.97    173.24 
     870        -17.41    98.67     17.44     16.99     -22.46    -22.46    -41.97    179.18 
     880        -17.38    97.91     17.38     15.32     -22.39    -22.39    -42.27    -174.61
     890        -17.34    97.08     17.31     13.67     -22.31    -22.31    -41.97    -166.31
     900        -17.34    96.13     17.25     12.03     -22.23    -22.23    -40.17    -158.57
     910        -17.34    95.38     17.17     10.41     -22.17    -22.17    -39.46    -149.27
     920        -17.27    94.48     17.11     8.72      -22.11    -22.11    -37.93    -148   
     930        -17.23    93.79     17.04     7.08      -22.04    -22.04    -37.61    -145.87
     940        -17.16    92.56     16.98     5.45      -21.98    -21.98    -36.26    -145.84
     950        -17.12    91.35     16.91     3.85      -21.9     -21.9     -35.85    -145.39
     960        -17.1     90.3      16.85     2.22      -21.87    -21.87    -35.62    -147.49
     970        -17.11    89.36     16.79     0.63      -21.79    -21.79    -34.92    -145.75
     980        -17.03    88.62     16.73     -0.96     -21.69    -21.69    -33.72    -145.71
     990        -16.96    87.76     16.66     -2.59     -21.67    -21.67    -33.22    -146.58
     1000       -16.89    86.67     16.6      -4.2      -21.62    -21.62    -32.96    -145.59
     1010       -16.86    85.58     16.54     -5.83     -21.55    -21.55    -32.18    -147.51
     1020       -16.88    84.94     16.47     -7.4      -21.49    -21.49    -32       -146.59
     1030       -16.87    83.77     16.42     -9.01     -21.41    -21.41    -31.49    -147.47
     1040       -16.87    83.11     16.35     -10.61    -21.36    -21.36    -31.08    -150.12
     1050       -16.78    81.96     16.29     -12.17    -21.3     -21.3     -30.7     -151.81
     1060       -16.79    80.96     16.22     -13.78    -21.24    -21.24    -30.33    -152.28
     1070       -16.76    79.67     16.17     -15.35    -21.17    -21.17    -30.18    -155.37
     1080       -16.72    78.32     16.11     -16.91    -21.1     -21.1     -29.64    -155.52
     1090       -16.67    77.06     16.05     -18.46    -21.05    -21.05    -29.48    -157.98
     1100       -16.68    76.43     15.99     -20.02    -21       -21       -29.17    -158.19
     1110       -16.63    75.54     15.92     -21.58    -20.97    -20.97    -29.11    -159.19
     1120       -16.58    74.74     15.87     -23.12    -20.91    -20.91    -28.64    -160.22
     1130       -16.54    73.71     15.81     -24.67    -20.84    -20.84    -28.36    -161.77
     1140       -16.53    72.91     15.75     -26.23    -20.79    -20.79    -28.07    -163.52
     1150       -16.51    71.83     15.69     -27.72    -20.73    -20.73    -27.92    -164.26
     1160       -16.48    70.79     15.64     -29.3     -20.67    -20.67    -27.63    -166.9 
     1170       -16.47    69.61     15.58     -30.86    -20.63    -20.63    -27.51    -168.07
     1180       -16.47    68.55     15.51     -32.37    -20.57    -20.57    -27.31    -170.02
     1190       -16.47    67.28     15.46     -33.9     -20.51    -20.51    -26.99    -171.6 
     1200       -16.49    66.17     15.4      -35.43    -20.46    -20.46    -26.78    -173.6 
     1210       -16.42    65.05     15.35     -36.96    -20.42    -20.42    -26.74    -174.7 
     1220       -16.37    64.22     15.29     -38.47    -20.36    -20.36    -26.43    -176.18
     1230       -16.34    63.19     15.24     -40       -20.29    -20.29    -26.38    -176.92
     1240       -16.3     62.17     15.18     -41.5     -20.25    -20.25    -26.34    -177.85
     1250       -16.28    61.32     15.13     -43.02    -20.2     -20.2     -26.1     -179.57
     1260       -16.26    60.4      15.07     -44.53    -20.13    -20.13    -25.81    179.31 
     1270       -16.31    59.49     15.01     -46       -20.07    -20.07    -25.72    177.13 
     1280       -16.32    58.8      14.97     -47.56    -20.03    -20.03    -25.33    174.28 
     1290       -16.3     57.64     14.91     -49.04    -20       -20       -25.28    172.6  
     1300       -16.31    56        14.85     -50.54    -19.92    -19.92    -25.07    171.25 
     1310       -16.36    54.53     14.8      -52.02    -19.89    -19.89    -24.92    168.82 
     1320       -16.36    53.39     14.74     -53.48    -19.82    -19.82    -24.77    168.25 
     1330       -16.32    52.28     14.69     -55.01    -19.78    -19.78    -24.61    166.33 
     1340       -16.22    51.7      14.64     -56.48    -19.74    -19.74    -24.58    165.01 
     1350       -16.17    50.76     14.59     -57.93    -19.69    -19.69    -24.48    163.59 
     1360       -16.08    49.81     14.54     -59.44    -19.64    -19.64    -24.35    162.31 
     1370       -16.1     48.92     14.49     -60.89    -19.56    -19.56    -24.37    161.57 
     1380       -16.19    47.9      14.44     -62.36    -19.52    -19.52    -24.24    160.01 
     1390       -16.2     47.66     14.39     -63.79    -19.48    -19.48    -23.94    157.84 
     1400       -16.22    46.68     14.35     -65.31    -19.43    -19.43    -23.59    155.32 
     1410       -16.23    45.64     14.3      -66.81    -19.38    -19.38    -23.38    153.66 
     1420       -16.26    44.15     14.25     -68.3     -19.34    -19.34    -23.31    152.57 
     1430       -16.28    42.74     14.2      -69.76    -19.3     -19.3     -23.11    150.84 
     1440       -16.3     41.17     14.15     -71.26    -19.25    -19.25    -22.98    148.68 
     1450       -16.35    40.25     14.1      -72.74    -19.2     -19.2     -22.95    147.07 
     1460       -16.29    39.22     14.06     -74.19    -19.15    -19.15    -22.81    145.92 
     1470       -16.21    38.71     14.01     -75.67    -19.12    -19.12    -22.72    144.35 
     1480       -16.14    37.89     13.96     -77.14    -19.07    -19.07    -22.61    143.3  
     1490       -16.12    36.68     13.9      -78.56    -19.03    -19.03    -22.59    141.31 
     1500       -16.14    35.92     13.86     -80.04    -19       -19       -22.43    140.08 
     1510       -16.19    34.76     13.81     -81.49    -18.92    -18.92    -22.2     138.12 
     1520       -16.29    34.31     13.76     -82.96    -18.91    -18.91    -22.09    136.67 
     1530       -16.33    33.17     13.72     -84.4     -18.84    -18.84    -21.89    135.29 
     1540       -16.38    31.95     13.67     -85.85    -18.79    -18.79    -21.66    134.13 
     1550       -16.38    31.01     13.63     -87.27    -18.75    -18.75    -21.52    132.62 
     1560       -16.37    29.78     13.58     -88.76    -18.71    -18.71    -21.35    130.9  
     1570       -16.33    28.33     13.54     -90.21    -18.66    -18.66    -21.4     129.16 
     1580       -16.36    26.96     13.49     -91.66    -18.64    -18.64    -21.29    127.21 
     1590       -16.39    25.73     13.44     -93.11    -18.61    -18.61    -21.27    125.82 
     1600       -16.35    24.99     13.39     -94.53    -18.57    -18.57    -21.19    124.73 
     1610       -16.32    24.26     13.35     -95.96    -18.5     -18.5     -21.2     123.29 
     1620       -16.37    23.71     13.31     -97.38    -18.47    -18.47    -20.9     122.06 
     1630       -16.37    23.07     13.27     -98.81    -18.42    -18.42    -20.71    120.58 
     1640       -16.44    22.06     13.22     -100.26   -18.36    -18.36    -20.55    118.36 
     1650       -16.51    21.01     13.18     -101.71   -18.34    -18.34    -20.45    116.66 
     1660       -16.54    19.85     13.14     -103.16   -18.29    -18.29    -20.27    115.22 
     1670       -16.58    18.64     13.09     -104.55   -18.26    -18.26    -20.18    114.27 
     1680       -16.65    17.23     13.04     -106.01   -18.21    -18.21    -20.05    112.24 
     1690       -16.6     16.18     13.01     -107.45   -18.16    -18.16    -19.91    110.96 
     1700       -16.59    14.63     12.96     -108.9    -18.14    -18.14    -19.86    108.57 
     1710       -16.59    13.67     12.92     -110.3    -18.08    -18.08    -19.89    107.27 
     1720       -16.58    12.69     12.87     -111.71   -18.08    -18.08    -19.88    105.66 
     1730       -16.58    11.66     12.83     -113.13   -18.02    -18.02    -19.8     104.87 
     1740       -16.65    11.18     12.79     -114.51   -18       -18       -19.62    103.87 
     1750       -16.67    10.1      12.76     -115.95   -17.92    -17.92    -19.41    102.32 
     1760       -16.71    9.52      12.72     -117.39   -17.88    -17.88    -19.25    100.29 
     1770       -16.77    8.22      12.68     -118.79   -17.83    -17.83    -19.18    98.36  
     1780       -16.78    7.5       12.64     -120.23   -17.82    -17.82    -19.13    97.46  
     1790       -16.84    6.15      12.6      -121.68   -17.76    -17.76    -19       96.1   
     1800       -16.93    4.51      12.55     -123.12   -17.74    -17.74    -18.95    94.43  
     1810       -16.92    3.84      12.51     -124.5    -17.69    -17.69    -18.91    93.16  
     1820       -16.95    2.41      12.48     -125.91   -17.66    -17.66    -18.76    91.28  
     1830       -16.88    1.62      12.44     -127.37   -17.6     -17.6     -18.72    89.89  
     1840       -16.95    0.17      12.39     -128.77   -17.59    -17.59    -18.69    87.79  
     1850       -16.95    -0.68     12.36     -130.18   -17.55    -17.55    -18.61    86.84  
     1860       -16.98    -1.81     12.32     -131.65   -17.51    -17.51    -18.38    85.26  
     1870       -17.04    -2.7      12.28     -133.04   -17.49    -17.49    -18.3     83.76  
     1880       -17.18    -3.32     12.24     -134.44   -17.42    -17.42    -18.17    82.39  
     1890       -17.22    -3.93     12.21     -135.85   -17.4     -17.4     -18.03    81.25  
     1900       -17.23    -5.04     12.17     -137.3    -17.35    -17.35    -17.97    79.24  
     1910       -17.25    -6.56     12.13     -138.71   -17.32    -17.32    -17.9     77.5   
     1920       -17.29    -8.18     12.09     -140.12   -17.29    -17.29    -17.81    75.84  
     1930       -17.34    -9.85     12.05     -141.53   -17.25    -17.25    -17.73    74.09  
     1940       -17.4     -10.79    12.01     -142.99   -17.21    -17.21    -17.74    72.27  
     1950       -17.35    -11.72    11.98     -144.4    -17.19    -17.19    -17.67    71.18  
     1960       -17.34    -12.12    11.93     -145.79   -17.15    -17.15    -17.61    69.86  
     1970       -17.39    -13.33    11.89     -147.16   -17.14    -17.14    -17.53    68.29  
     1980       -17.37    -14.5     11.86     -148.6    -17.08    -17.08    -17.38    67.27  
     1990       -17.44    -15       11.82     -149.95   -17.06    -17.06    -17.29    65.59  
     2000       -17.51    -16.19    11.79     -151.39   -17.01    -17.01    -17.19    64.49  
     2010       -17.62    -17.23    11.75     -152.78   -16.99    -16.99    -17.11    62.57  
     2020       -17.75    -18.53    11.71     -154.26   -16.94    -16.94    -17.03    61.4   
     2030       -17.78    -19.68    11.68     -155.64   -16.92    -16.92    -16.95    59.88  
     2040       -17.79    -20.99    11.64     -157      -16.9     -16.9     -16.86    58.26  
     2050       -17.78    -22.47    11.6      -158.44   -16.85    -16.85    -16.8     56.52  
     2060       -17.78    -24.12    11.56     -159.83   -16.82    -16.82    -16.69    54.37  
     2070       -17.85    -25.31    11.53     -161.26   -16.79    -16.79    -16.67    53.04  
