! Mini-Circuits
! S2P DATA File Format
! Unit Family Type: Amplifier
! MCL Part No: TAMP-72LN+
! Note: All S Parameters are in dB deg format
! The Unit was tested at -40 °C
!
# MHz S DB R 50
!    FREQ       dB(S11)   PHS(S11)  dB(S21)   PHS(S21)  dB(S12)   PHS(S12)  dB(S22)   PHS(S22) 
     10         -1.17     174.12    -13.42    -22.28    -50.89    159.2     -0.18     -37.33 
     20         -1.14     168.91    3.42      -44.34    -56.46    -172.72   -2.58     -79.78 
     30         -1.27     163.33    9.58      -64.02    -49.56    155.66    -7.15     -117.75
     40         -1.41     157.73    13.02     -80.29    -46.49    136.42    -13.67    -153.79
     50         -1.57     152.12    15.33     -92.9     -43.6     127.84    -21.96    147.89 
     60         -1.8      146.34    16.99     -103.76   -41.05    126.72    -20.64    63.27  
     70         -2.06     140.75    18.32     -112.66   -38.83    115.51    -16.76    29.9   
     80         -2.37     135       19.42     -121.06   -37.65    109.2     -14.52    11.9   
     90         -2.75     129.39    20.3      -128.92   -36.26    102.49    -13.2     -1.46  
     100        -3.18     123.95    21.03     -136.42   -35.12    97.84     -12.39    -12.73 
     110        -3.67     118.61    21.64     -143.65   -34.09    92.49     -11.79    -23.07 
     120        -4.23     113.43    22.12     -150.61   -33.18    86.17     -11.47    -32.26 
     130        -4.82     109.08    22.48     -157.07   -32.54    80.81     -11.32    -40.99 
     140        -5.44     104.51    22.77     -163.38   -31.78    77.09     -11.25    -49.29 
     150        -6.1      100.67    22.97     -169.33   -31.35    72.83     -11.26    -57.01 
     160        -6.76     97.19     23.13     -174.94   -30.71    68.39     -11.39    -64.38 
     170        -7.42     94.19     23.23     179.73    -30.34    64.62     -11.58    -71.42 
     180        -8.12     91.83     23.28     174.71    -30.02    61.04     -11.83    -77.78 
     190        -8.78     89.95     23.31     169.96    -29.66    57.8      -12.11    -84.34 
     200        -9.43     88.38     23.31     165.47    -29.41    54.57     -12.42    -90.42 
     210        -10.08    87.46     23.3      161.18    -29.12    51.3      -12.71    -96.29 
     220        -10.71    86.75     23.26     157.08    -28.89    48.12     -13.11    -101.97
     230        -11.35    86.4      23.21     153.12    -28.69    46.01     -13.48    -107.62
     240        -11.91    86.67     23.15     149.41    -28.59    43.3      -13.83    -113.1 
     250        -12.45    86.77     23.09     145.8     -28.34    40.83     -14.26    -118.73
     260        -12.97    87.2      23        142.34    -28.21    38.38     -14.56    -122.34
     270        -13.52    88.73     22.9      139.27    -28.02    35.92     -14.77    -128.96
     280        -13.87    89.59     22.83     136.04    -28.13    34.65     -15.25    -134.74
     290        -14.24    91.06     22.75     133       -27.77    32.61     -15.53    -140.14
     300        -14.58    92.1      22.67     129.99    -27.69    31.19     -16.06    -145.33
     310        -14.91    93.56     22.59     127.05    -27.55    29.16     -16.47    -150.84
     320        -15.04    95.16     22.48     124.28    -27.42    27.47     -16.8     -155.43
     330        -15.29    96.48     22.41     121.56    -27.26    25.66     -17.18    -160.47
     340        -15.46    97.69     22.32     118.88    -27.16    24.49     -17.61    -165.86
     350        -15.65    99.13     22.23     116.2     -27.15    23.33     -17.99    -171.33
     360        -15.79    99.84     22.14     113.66    -26.92    21.16     -18.26    -176.03
     370        -15.95    101.02    22.05     111.1     -26.78    19.39     -18.63    179.18 
     380        -16       101.82    21.95     108.63    -26.76    18.09     -18.91    174.61 
     390        -16.04    102.51    21.86     106.18    -26.65    16.81     -19.14    169.34 
     400        -16.11    102.85    21.78     103.78    -26.58    14.74     -19.4     165.52 
     410        -16.13    103.11    21.69     101.47    -26.44    13.83     -19.69    159.86 
     420        -16.09    103.2     21.6      99.14     -26.32    12.34     -20.02    155.78 
     430        -16.11    103.58    21.51     96.82     -26.33    10.85     -20.38    151.42 
     440        -16.06    103.18    21.43     94.57     -26.15    9.53      -20.49    147.51 
     450        -16.04    103.25    21.34     92.33     -25.99    8.54      -20.78    143.3  
     460        -15.99    103.54    21.25     90.13     -25.99    7.22      -20.88    139.17 
     470        -15.96    103.06    21.17     87.98     -25.91    6.05      -21.15    135.35 
     480        -15.93    103.03    21.08     85.83     -25.81    4.81      -21.25    130.97 
     490        -15.86    102.44    21        83.72     -25.71    3.71      -21.54    125.86 
     500        -15.85    102.07    20.91     81.59     -25.65    2.21      -21.76    122.68 
     510        -15.8     101.65    20.84     79.44     -25.5     1.03      -21.87    119.49 
     520        -15.77    101.4     20.76     77.38     -25.46    0.06      -22.06    114.95 
     530        -15.74    100.77    20.68     75.35     -25.37    -1.69     -22.34    111.27 
     540        -15.72    100.37    20.59     73.34     -25.26    -2.86     -22.52    107.99 
     550        -15.64    99.51     20.51     71.33     -25.12    -3.5      -22.68    104.52 
     560        -15.62    99.35     20.42     69.32     -25.15    -4.96     -22.84    101.08 
     570        -15.59    98.69     20.35     67.35     -25.02    -6.2      -22.99    96.64  
     580        -15.56    97.93     20.27     65.4      -24.95    -7.26     -23.2     92.6   
     590        -15.53    97.62     20.19     63.45     -24.85    -8.75     -23.37    89.22  
     600        -15.55    96.85     20.11     61.54     -24.76    -9.52     -23.59    85.51  
     610        -15.56    96.37     20.04     59.62     -24.68    -10.67    -23.83    81.53  
     620        -15.58    95.71     19.96     57.66     -24.6     -11.91    -23.99    78.58  
     630        -15.57    95.22     19.89     55.77     -24.5     -13.28    -24.26    73.18  
     640        -15.59    94.28     19.81     53.85     -24.44    -14.17    -24.45    69.68  
     650        -15.67    93.39     19.74     52.01     -24.33    -15.46    -24.59    64.53  
     660        -15.69    92.59     19.66     50.1      -24.24    -16.55    -24.96    60.49  
     670        -15.69    92.15     19.59     48.26     -24.16    -17.86    -25.02    55.29  
     680        -15.67    91.23     19.51     46.42     -24.06    -19.11    -24.95    53.89  
     690        -15.73    90.84     19.44     44.53     -24       -19.9     -25.38    47.08  
     700        -15.74    89.81     19.37     42.73     -23.93    -21.12    -25.48    43.2   
     710        -15.75    88.74     19.3      40.92     -23.83    -22.58    -25.59    38.75  
     720        -15.78    88.02     19.23     39.12     -23.78    -23.54    -25.7     34.23  
     730        -15.78    87.1      19.15     37.33     -23.69    -24.68    -25.75    30.91  
     740        -15.77    86.47     19.07     35.5      -23.64    -25.93    -26       27.02  
     750        -15.84    85.38     19.01     33.72     -23.5     -27.14    -26.02    21.88  
     760        -15.9     84.7      18.94     31.96     -23.47    -28.24    -26.06    16.97  
     770        -15.94    83.48     18.86     30.2      -23.39    -29.56    -26.03    12.74  
     780        -15.94    82.83     18.79     28.38     -23.32    -30.73    -26.24    8.04   
     790        -15.98    82        18.73     26.62     -23.25    -31.63    -26.32    3.73   
     800        -15.98    80.88     18.65     24.89     -23.18    -32.81    -26.27    0.51   
     810        -16.04    79.88     18.58     23.14     -23.08    -34.09    -26.1     -4.51  
     820        -16.04    78.88     18.52     21.42     -23.03    -35.36    -26.11    -8.16  
     830        -16.07    77.86     18.45     19.7      -22.95    -36.51    -26.06    -12.59 
     840        -16.08    76.76     18.38     17.98     -22.86    -37.54    -26.22    -16.02 
     850        -16.14    75.83     18.32     16.25     -22.81    -38.69    -26.25    -19.29 
     860        -16.18    75.06     18.25     14.51     -22.74    -39.87    -26.19    -24.67 
     870        -16.16    73.9      18.18     12.81     -22.69    -40.97    -26.24    -27.54 
     880        -16.18    72.88     18.11     11.11     -22.6     -42.06    -26.23    -31.16 
     890        -16.19    71.97     18.04     9.42      -22.53    -43.19    -26.01    -35.88 
     900        -16.27    70.83     17.98     7.73      -22.44    -44.42    -26.12    -39.05 
     910        -16.34    69.75     17.92     6.07      -22.37    -45.86    -25.96    -43.14 
     920        -16.31    68.59     17.85     4.35      -22.33    -46.95    -26.01    -46.81 
     930        -16.36    67.53     17.79     2.68      -22.24    -47.95    -25.91    -49.63 
     940        -16.37    66.29     17.73     1.01      -22.18    -49.09    -25.93    -54.58 
     950        -16.35    64.82     17.66     -0.64     -22.12    -50.22    -25.86    -57.47 
     960        -16.39    63.87     17.6      -2.32     -22.05    -51.61    -25.97    -60.66 
     970        -16.44    62.55     17.54     -3.96     -21.98    -52.72    -25.81    -64.33 
     980        -16.43    61.54     17.48     -5.6      -21.9     -53.91    -25.77    -68.37 
     990        -16.42    60.42     17.42     -7.26     -21.88    -55.07    -25.72    -71.12 
     1000       -16.38    59.32     17.36     -8.91     -21.8     -56.24    -25.61    -73.8  
     1010       -16.41    57.91     17.29     -10.57    -21.73    -57.63    -25.55    -78.5  
     1020       -16.47    56.93     17.23     -12.18    -21.68    -58.64    -25.35    -81.11 
     1030       -16.48    55.71     17.17     -13.84    -21.6     -59.88    -25.31    -84.9  
     1040       -16.52    54.59     17.11     -15.48    -21.56    -61.13    -25.28    -87.36 
     1050       -16.52    53.38     17.05     -17.1     -21.49    -62.31    -25.23    -90.74 
     1060       -16.5     52.15     16.99     -18.74    -21.39    -63.51    -25.24    -93.93 
     1070       -16.54    50.54     16.93     -20.34    -21.39    -64.52    -25.21    -96.87 
     1080       -16.49    49.25     16.87     -21.94    -21.29    -65.94    -25.04    -99.55 
     1090       -16.45    48.08     16.81     -23.55    -21.26    -67.05    -25.16    -103.13
     1100       -16.49    47.28     16.75     -25.16    -21.21    -68.41    -25.01    -105.14
     1110       -16.48    45.96     16.69     -26.77    -21.12    -69.37    -24.83    -106.98
     1120       -16.42    45.19     16.63     -28.36    -21.03    -70.64    -24.72    -110   
     1130       -16.43    43.98     16.58     -29.94    -21.01    -71.55    -24.59    -112.95
     1140       -16.47    43.03     16.52     -31.57    -20.93    -73.02    -24.55    -115.39
     1150       -16.44    41.85     16.46     -33.1     -20.88    -74.38    -24.48    -118.2 
     1160       -16.44    40.7      16.41     -34.71    -20.82    -75.54    -24.49    -121.1 
     1170       -16.42    39.56     16.35     -36.32    -20.78    -76.38    -24.38    -123.03
     1180       -16.4     38.35     16.29     -37.87    -20.73    -77.9     -24.47    -125.85
     1190       -16.38    36.95     16.23     -39.46    -20.66    -79.03    -24.37    -127.29
     1200       -16.39    35.84     16.17     -41.03    -20.62    -80.04    -24.32    -130.06
     1210       -16.34    34.69     16.12     -42.59    -20.57    -81.51    -24.29    -131.61
     1220       -16.27    33.93     16.06     -44.16    -20.5     -82.75    -24.17    -133.56
     1230       -16.24    33.25     16.01     -45.73    -20.45    -83.81    -24.11    -135.52
     1240       -16.2     32.13     15.96     -47.25    -20.39    -84.81    -24.1     -136.6 
     1250       -16.17    31.31     15.9      -48.83    -20.34    -86.19    -24.03    -139.05
     1260       -16.19    30.4      15.85     -50.38    -20.3     -87.4     -23.84    -141.52
     1270       -16.17    29.35     15.79     -51.91    -20.24    -88.55    -23.96    -143.34
     1280       -16.2     28.41     15.75     -53.51    -20.19    -89.83    -23.88    -147.26
     1290       -16.2     27.47     15.69     -55.03    -20.12    -90.9     -23.82    -148.24
     1300       -16.14    26.19     15.63     -56.57    -20.08    -92.29    -23.71    -150.76
     1310       -16.15    24.83     15.58     -58.11    -20.03    -93.44    -23.76    -152.57
     1320       -16.13    23.69     15.53     -59.61    -20       -94.52    -23.63    -154.2 
     1330       -16.09    22.98     15.47     -61.18    -19.93    -95.79    -23.63    -156.66
     1340       -16.05    22.31     15.42     -62.71    -19.85    -96.93    -23.67    -157.77
     1350       -15.98    21.53     15.37     -64.18    -19.83    -98.15    -23.64    -159.41
     1360       -15.95    20.9      15.32     -65.74    -19.81    -99.5     -23.55    -160.7 
     1370       -15.93    20.17     15.28     -67.23    -19.72    -100.58   -23.43    -162.37
     1380       -16.01    18.88     15.23     -68.75    -19.67    -101.79   -23.35    -164.17
     1390       -16.06    18.66     15.18     -70.22    -19.62    -102.96   -23.22    -167.11
     1400       -16.1     17.62     15.13     -71.8     -19.57    -104.37   -23.21    -170.79
     1410       -16.12    16.56     15.09     -73.33    -19.53    -105.39   -23.02    -173.39
     1420       -16.14    15.13     15.04     -74.86    -19.47    -106.67   -22.94    -174.8 
     1430       -16.17    13.82     14.99     -76.36    -19.43    -107.84   -22.8     -177.46
     1440       -16.18    12.38     14.94     -77.91    -19.36    -109.11   -22.78    -179.4 
     1450       -16.21    11.23     14.89     -79.42    -19.33    -110.32   -22.78    178.18 
     1460       -16.2     10.53     14.85     -80.91    -19.28    -111.4    -22.67    176.59 
     1470       -16.16    10.18     14.8      -82.44    -19.23    -112.79   -22.57    174.56 
     1480       -16.09    9.4       14.75     -83.95    -19.19    -114.03   -22.45    172.76 
     1490       -16.1     8.44      14.7      -85.41    -19.16    -115.31   -22.53    171.03 
     1500       -16.17    7.68      14.66     -86.94    -19.11    -116.5    -22.25    168.9  
     1510       -16.18    6.29      14.61     -88.43    -19.06    -117.76   -22.16    166.11 
     1520       -16.3     5.43      14.56     -89.96    -19.01    -118.88   -22       163.78 
     1530       -16.38    4.14      14.52     -91.45    -18.95    -120.02   -21.8     161.92 
     1540       -16.45    3.03      14.47     -92.97    -18.92    -121.34   -21.66    159.67 
     1550       -16.47    2.06      14.43     -94.43    -18.86    -122.73   -21.55    157.67 
     1560       -16.42    0.86      14.38     -95.97    -18.83    -123.97   -21.39    155.01 
     1570       -16.38    -0.42     14.34     -97.44    -18.78    -124.98   -21.44    153.69 
     1580       -16.38    -1.67     14.29     -98.94    -18.75    -126.32   -21.41    151.2  
     1590       -16.4     -2.71     14.24     -100.45   -18.71    -127.42   -21.34    150.15 
     1600       -16.41    -3.21     14.2      -101.89   -18.65    -128.92   -21.27    148.63 
     1610       -16.45    -3.65     14.16     -103.37   -18.61    -129.96   -21.21    147.2  
     1620       -16.51    -4.38     14.12     -104.84   -18.58    -131.06   -20.9     145.31 
     1630       -16.57    -4.89     14.08     -106.32   -18.53    -132.41   -20.73    142.77 
     1640       -16.67    -6.05     14.03     -107.82   -18.48    -133.51   -20.58    140.44 
     1650       -16.78    -6.77     13.99     -109.31   -18.41    -134.87   -20.47    138.28 
     1660       -16.83    -7.76     13.95     -110.8    -18.38    -136.07   -20.31    136.42 
     1670       -16.86    -8.84     13.91     -112.26   -18.35    -137.38   -20.14    134.76 
     1680       -16.93    -10.4     13.86     -113.75   -18.29    -138.59   -20.1     132.72 
     1690       -16.92    -11.33    13.82     -115.26   -18.26    -139.94   -19.92    130.79 
     1700       -16.89    -12.46    13.78     -116.75   -18.23    -141.3    -19.89    128.47 
     1710       -16.98    -13.37    13.74     -118.19   -18.18    -142.26   -19.88    127.44 
     1720       -16.97    -13.69    13.69     -119.65   -18.13    -143.59   -19.81    126.07 
     1730       -17.08    -14.52    13.65     -121.12   -18.12    -144.67   -19.65    124.67 
     1740       -17.16    -14.85    13.61     -122.56   -18.06    -145.92   -19.44    123.02 
     1750       -17.24    -16.25    13.58     -124.06   -18.01    -147.13   -19.25    121.01 
     1760       -17.31    -16.82    13.54     -125.56   -17.99    -148.45   -19.11    118.59 
     1770       -17.48    -18.37    13.49     -127.01   -17.94    -149.68   -19.06    116.23 
     1780       -17.52    -19.02    13.46     -128.47   -17.88    -150.92   -18.96    115.03 
     1790       -17.65    -20.45    13.42     -129.95   -17.82    -152.18   -18.84    113.09 
     1800       -17.66    -22.25    13.38     -131.45   -17.8     -153.5    -18.77    111.34 
     1810       -17.7     -23.05    13.34     -132.88   -17.78    -154.6    -18.71    109.98 
     1820       -17.82    -24.66    13.3      -134.32   -17.73    -156.03   -18.61    107.55 
     1830       -17.79    -25.19    13.27     -135.84   -17.71    -157.28   -18.55    105.65 
     1840       -17.87    -26.88    13.22     -137.28   -17.65    -158.49   -18.54    103.92 
     1850       -17.91    -27.45    13.19     -138.75   -17.65    -159.54   -18.38    102.33 
     1860       -17.93    -28.66    13.15     -140.26   -17.58    -160.99   -18.19    99.99  
     1870       -18.06    -29.74    13.11     -141.7    -17.55    -162.17   -18.1     98.44  
     1880       -18.25    -30.58    13.08     -143.17   -17.53    -163.62   -17.98    96.52  
     1890       -18.35    -31.39    13.04     -144.61   -17.47    -164.77   -17.85    94.95  
     1900       -18.36    -32.76    13        -146.11   -17.43    -166      -17.78    92.68  
     1910       -18.36    -34.31    12.96     -147.56   -17.41    -167.22   -17.73    90.52  
     1920       -18.4     -35.84    12.93     -149.04   -17.34    -168.45   -17.67    88.8   
     1930       -18.44    -37.83    12.89     -150.48   -17.33    -169.67   -17.62    86.92  
     1940       -18.46    -38.62    12.85     -151.97   -17.28    -171.04   -17.66    85.05  
     1950       -18.54    -39.54    12.82     -153.45   -17.26    -172.35   -17.54    83.53  
     1960       -18.54    -39.95    12.77     -154.88   -17.21    -173.62   -17.47    82.16  
     1970       -18.6     -41.25    12.74     -156.3    -17.16    -174.62   -17.39    80.42  
     1980       -18.63    -42.15    12.7      -157.82   -17.13    -176.07   -17.24    78.73  
     1990       -18.76    -43.17    12.67     -159.22   -17.13    -177.26   -17.13    76.83  
     2000       -18.89    -44.35    12.63     -160.69   -17.09    -178.5    -17.01    75.36  
     2010       -19.05    -45.95    12.6      -162.15   -17.03    -179.82   -16.96    73.35  
     2020       -19.16    -47.4     12.56     -163.67   -17.01    178.94    -16.83    71.64  
     2030       -19.23    -48.84    12.52     -165.09   -16.97    177.54    -16.79    70.06  
     2040       -19.24    -50.23    12.49     -166.52   -16.92    176.27    -16.7     67.93  
     2050       -19.2     -51.82    12.45     -168      -16.91    175.18    -16.67    66.1   
     2060       -19.23    -53.62    12.41     -169.45   -16.88    173.84    -16.64    63.82  
     2070       -19.26    -54.81    12.38     -170.92   -16.85    172.53    -16.57    62.43  
