! Mini-Circuits
! S2P DATA File Format
! Unit Family Type: Amplifier
! MCL Part No: TAMP-72LN+
! Note: All S Parameters are in dB deg format
! The Unit was tested at +25 °C
!
# MHz S DB R 50
!    FREQ       dB(S11)   PHS(S11)  dB(S21)   PHS(S21)  dB(S12)   PHS(S12)  dB(S22)   PHS(S22) 
     10         -1.37     173.52    -12.04    -29.54    -56.08    158.05    -0.22     -37.5  
     20         -1.42     168.77    3.66      -51.97    -53.17    167.84    -2.88     -80.11 
     30         -1.53     163.3     9.32      -71.3     -49.38    155.72    -8.01     -117.42
     40         -1.66     157.82    12.44     -86.38    -45.48    131.4     -15.71    -152.49
     50         -1.78     152.3     14.57     -97.73    -43.76    122.06    -25.95    125.8  
     60         -2.01     146.57    16.14     -107.44   -41.18    120.57    -20.08    45.19  
     70         -2.23     141.24    17.41     -115.38   -39.09    113.46    -16.11    21.91  
     80         -2.5      135.71    18.47     -122.95   -37.52    106.56    -14.07    7.77   
     90         -2.84     130.3     19.35     -130.05   -36.17    101.86    -12.83    -3.92  
     100        -3.22     125.04    20.09     -136.88   -35.15    97.13     -12.03    -13.84 
     110        -3.66     119.83    20.72     -143.54   -33.92    90.41     -11.5     -23.13 
     120        -4.16     114.79    21.23     -150.01   -33.07    86.64     -11.18    -31.77 
     130        -4.71     110.32    21.63     -156.1    -32.28    80.89     -10.99    -39.75 
     140        -5.31     105.76    21.96     -162.08   -31.67    77.41     -10.93    -47.97 
     150        -5.95     101.63    22.21     -167.8    -31.06    72.87     -10.92    -55.36 
     160        -6.59     97.89     22.4      -173.22   -30.61    69.38     -11.03    -62.75 
     170        -7.24     94.56     22.55     -178.45   -30.12    64.95     -11.18    -69.49 
     180        -7.95     91.73     22.63     176.61    -29.79    61.89     -11.33    -76.07 
     190        -8.65     89.3      22.69     171.92    -29.43    58.22     -11.58    -82.34 
     200        -9.34     87.18     22.73     167.44    -29.11    54.76     -11.84    -88.51 
     210        -10.05    85.49     22.74     163.16    -28.88    52.2      -12.07    -94.2  
     220        -10.76    84.28     22.73     159.06    -28.67    49.41     -12.4     -99.95 
     230        -11.47    83.21     22.7      155.09    -28.4     46.2      -12.7     -105.02
     240        -12.14    82.74     22.66     151.36    -28.24    43.4      -13.05    -110.19
     250        -12.77    82.17     22.6      147.71    -28.02    41.39     -13.37    -115.04
     260        -13.47    82.04     22.53     144.24    -27.84    38.38     -13.59    -119.13
     270        -14.13    82.78     22.45     141.1     -27.78    37.2      -13.82    -124.92
     280        -14.64    83.22     22.39     137.87    -27.53    35.2      -14.23    -129.81
     290        -15.14    84.42     22.32     134.8     -27.44    32.83     -14.6     -134.3 
     300        -15.61    85.52     22.25     131.76    -27.34    31.02     -14.97    -139.11
     310        -16.08    86.47     22.17     128.81    -27.26    29.73     -15.26    -143.34
     320        -16.37    88.3      22.08     126.01    -27.06    27.72     -15.53    -147.12
     330        -16.75    89.9      22.01     123.25    -26.97    25.55     -15.96    -151.09
     340        -16.98    91.38     21.92     120.56    -26.85    24.23     -16.29    -155.67
     350        -17.29    93.54     21.84     117.87    -26.73    22.53     -16.6     -159.58
     360        -17.56    94.7      21.76     115.29    -26.65    21.04     -17.03    -163.53
     370        -17.78    96.69     21.67     112.72    -26.54    19.88     -17.4     -167.2 
     380        -17.94    98.19     21.58     110.22    -26.39    18.06     -17.71    -170.83
     390        -18.08    99.51     21.49     107.75    -26.35    16.82     -18.02    -175.36
     400        -18.17    100.67    21.42     105.32    -26.23    15.32     -18.3     -178.47
     410        -18.24    101.51    21.32     102.99    -26.13    14.36     -18.77    177.49 
     420        -18.26    102.65    21.24     100.65    -26.08    12.46     -19.01    173.74 
     430        -18.23    103.75    21.16     98.3      -25.98    11.33     -19.39    170.28 
     440        -18.21    104.08    21.07     96.04     -25.91    9.87      -19.62    167.22 
     450        -18.13    104.86    20.98     93.78     -25.8     8.58      -19.98    163.47 
     460        -18.08    105.88    20.9      91.57     -25.66    7.36      -20.17    159.62 
     470        -18.06    106.48    20.82     89.4      -25.62    6.25      -20.56    155.91 
     480        -18.05    107.16    20.74     87.25     -25.54    5         -20.86    152.19 
     490        -17.97    107.11    20.65     85.11     -25.43    3.59      -21.22    148.01 
     500        -17.95    107.38    20.57     82.96     -25.38    2.63      -21.56    144.79 
     510        -17.9     107.39    20.5      80.81     -25.26    1.39      -21.87    142.15 
     520        -17.87    107.93    20.41     78.73     -25.19    0.1       -22.17    138.19 
     530        -17.78    107.29    20.33     76.7      -25.07    -0.56     -22.55    134.13 
     540        -17.74    107.02    20.24     74.67     -25.04    -2.31     -22.65    131.38 
     550        -17.64    106.83    20.17     72.65     -24.94    -3.63     -22.94    128.1  
     560        -17.5     106.64    20.08     70.63     -24.84    -4.51     -23.14    124.87 
     570        -17.43    106.36    20.01     68.65     -24.76    -5.76     -23.48    120.56 
     580        -17.39    105.94    19.93     66.69     -24.66    -6.95     -23.79    116.9  
     590        -17.33    105.61    19.84     64.74     -24.54    -8.06     -24.14    114.88 
     600        -17.29    105.46    19.77     62.79     -24.53    -9.2      -24.45    111.45 
     610        -17.27    105.03    19.69     60.86     -24.4     -10.37    -24.9     107.62 
     620        -17.24    104.66    19.61     58.9      -24.34    -11.68    -25.08    105.18 
     630        -17.21    104.09    19.53     57.03     -24.28    -12.5     -25.44    100.76 
     640        -17.19    103.32    19.45     55.12     -24.15    -13.92    -25.74    97.31  
     650        -17.18    102.5     19.38     53.28     -24.07    -14.85    -26.1     93.71  
     660        -17.06    102.18    19.3      51.38     -24.03    -16.06    -26.43    89.91  
     670        -17.04    101.51    19.23     49.54     -23.95    -17.29    -26.7     87.14  
     680        -16.92    100.46    19.15     47.68     -23.85    -18.33    -26.66    84.73  
     690        -16.87    100.16    19.08     45.82     -23.75    -19.49    -27.36    81.35  
     700        -16.84    99.34     19.01     44.02     -23.71    -20.47    -27.66    76.7   
     710        -16.78    98.49     18.93     42.21     -23.65    -21.87    -27.79    73.85  
     720        -16.77    98.01     18.86     40.42     -23.57    -22.83    -28.43    68.49  
     730        -16.73    97.18     18.78     38.65     -23.5     -23.93    -28.16    65.24  
     740        -16.67    96.38     18.7      36.81     -23.44    -25.07    -28.64    62.56  
     750        -16.68    95.76     18.64     35.05     -23.32    -26.23    -29.12    57.76  
     760        -16.65    95.03     18.56     33.28     -23.27    -27.48    -29.33    53.19  
     770        -16.63    94        18.49     31.54     -23.18    -28.62    -29.61    49.77  
     780        -16.57    93.41     18.41     29.73     -23.09    -29.59    -29.99    47.1   
     790        -16.54    92.32     18.35     28.01     -23.01    -30.84    -30.39    42.88  
     800        -16.49    91.28     18.27     26.27     -23.01    -31.98    -30.56    40.85  
     810        -16.46    90.5      18.2      24.53     -22.88    -33.03    -30.62    34.53  
     820        -16.41    89.62     18.13     22.81     -22.81    -34.14    -30.99    30.82  
     830        -16.42    88.73     18.06     21.11     -22.74    -35.41    -31.38    25.56  
     840        -16.35    87.79     18        19.4      -22.7     -36.52    -31.71    22.24  
     850        -16.36    87.11     17.92     17.68     -22.62    -37.57    -31.9     19.24  
     860        -16.35    86.21     17.86     15.97     -22.56    -38.82    -32.28    13.41  
     870        -16.31    85.38     17.79     14.27     -22.47    -39.93    -32.56    8.27   
     880        -16.31    84.36     17.72     12.57     -22.4     -41.06    -32.75    4.67   
     890        -16.28    83.44     17.65     10.91     -22.35    -42.24    -32.91    0.92   
     900        -16.3     82.49     17.59     9.24      -22.28    -43.46    -33.37    -7.17  
     910        -16.3     81.34     17.52     7.59      -22.21    -44.54    -33.24    -11.07 
     920        -16.25    80.26     17.46     5.88      -22.13    -45.69    -33.89    -17.2  
     930        -16.22    79.36     17.39     4.22      -22.07    -46.93    -33.86    -20.69 
     940        -16.23    78.43     17.33     2.56      -22       -48.23    -34.11    -28.53 
     950        -16.19    77.2      17.26     0.93      -21.93    -49.19    -34.21    -33.4  
     960        -16.14    76.61     17.19     -0.73     -21.87    -50.46    -34.6     -37.87 
     970        -16.17    75.24     17.14     -2.36     -21.8     -51.42    -34.26    -42.51 
     980        -16.16    74.55     17.07     -3.97     -21.73    -52.86    -34.36    -50.55 
     990        -16.13    73.58     17.01     -5.62     -21.69    -53.84    -34.28    -55.44 
     1000       -16.08    72.69     16.94     -7.24     -21.63    -55.08    -34.03    -59.83 
     1010       -16.11    71.8      16.88     -8.88     -21.53    -56.19    -33.96    -66.06 
     1020       -16.14    71.03     16.82     -10.47    -21.48    -57.32    -33.91    -70.43 
     1030       -16.13    69.72     16.76     -12.09    -21.44    -58.4     -33.87    -77.86 
     1040       -16.13    68.5      16.7      -13.72    -21.38    -59.7     -33.87    -83.22 
     1050       -16.12    67.28     16.64     -15.31    -21.3     -60.74    -33.52    -87.92 
     1060       -16.13    66.3      16.57     -16.93    -21.25    -61.82    -33.36    -92.85 
     1070       -16.14    65.06     16.51     -18.51    -21.2     -63.01    -33.48    -98.04 
     1080       -16.08    64        16.46     -20.09    -21.09    -64.02    -32.83    -101.53
     1090       -16.03    62.84     16.4      -21.68    -21.05    -65.52    -33.02    -105.9 
     1100       -16.08    62.28     16.34     -23.26    -21       -66.53    -32.46    -110.04
     1110       -16.04    61.39     16.28     -24.85    -20.97    -67.91    -32.23    -111.79
     1120       -16.03    60.38     16.22     -26.42    -20.88    -68.87    -31.94    -116.52
     1130       -16.02    59.34     16.16     -27.99    -20.84    -70.15    -31.55    -120.83
     1140       -16.08    58.6      16.1      -29.57    -20.76    -71.3     -31.3     -124.99
     1150       -16.08    57.37     16.04     -31.09    -20.69    -72.38    -30.94    -128.43
     1160       -16.06    56.24     16        -32.7     -20.65    -73.63    -30.67    -133.12
     1170       -16.12    55.1      15.93     -34.29    -20.59    -74.71    -30.49    -136.29
     1180       -16.08    53.83     15.87     -35.83    -20.55    -76.07    -30.26    -139.08
     1190       -16.08    52.53     15.82     -37.39    -20.47    -77.07    -30.05    -141.89
     1200       -16.09    51.27     15.76     -38.93    -20.42    -78.46    -29.99    -145.33
     1210       -16.07    50.35     15.71     -40.48    -20.38    -79.43    -29.85    -147.38
     1220       -16.02    49.37     15.65     -42.02    -20.32    -80.75    -29.37    -150.21
     1230       -16.04    48.68     15.59     -43.57    -20.28    -81.88    -29.07    -151.6 
     1240       -16.03    47.65     15.54     -45.09    -20.19    -83       -28.85    -154.39
     1250       -16.04    46.85     15.49     -46.64    -20.16    -84.04    -28.5     -156.82
     1260       -16.07    46.21     15.44     -48.17    -20.14    -85.48    -28.13    -160.48
     1270       -16.12    44.84     15.38     -49.68    -20.06    -86.62    -28.01    -162.46
     1280       -16.12    43.82     15.33     -51.27    -19.98    -87.91    -27.61    -166.97
     1290       -16.18    42.77     15.28     -52.77    -19.96    -88.99    -27.45    -168.41
     1300       -16.17    41.29     15.22     -54.31    -19.92    -90.21    -27.29    -170.48
     1310       -16.18    40.04     15.17     -55.82    -19.82    -91.49    -27.13    -174.2 
     1320       -16.14    38.82     15.12     -57.33    -19.78    -92.48    -26.96    -175.48
     1330       -16.08    37.53     15.06     -58.9     -19.75    -93.64    -26.78    -178.61
     1340       -16.08    36.77     15.01     -60.42    -19.7     -94.84    -26.72    179.15 
     1350       -16.06    35.78     14.96     -61.9     -19.65    -96.17    -26.49    177.89 
     1360       -16.05    35.06     14.91     -63.43    -19.6     -97.25    -26.27    176.26 
     1370       -16.07    34.32     14.86     -64.9     -19.53    -98.4     -26.02    175.4  
     1380       -16.13    33.37     14.81     -66.41    -19.48    -99.6     -25.9     173.22 
     1390       -16.17    32.75     14.76     -67.87    -19.41    -100.94   -25.52    170.97 
     1400       -16.2     31.66     14.71     -69.43    -19.39    -101.88   -25.29    167.47 
     1410       -16.27    30.44     14.67     -70.93    -19.34    -103.24   -25.18    165.19 
     1420       -16.29    28.98     14.61     -72.45    -19.29    -104.41   -24.89    164.34 
     1430       -16.31    27.81     14.57     -73.9     -19.23    -105.61   -24.78    162.18 
     1440       -16.29    26.47     14.52     -75.44    -19.21    -107.05   -24.64    158.71 
     1450       -16.32    25.21     14.47     -76.95    -19.15    -107.98   -24.55    157.02 
     1460       -16.27    23.8      14.42     -78.44    -19.11    -109.35   -24.43    154.86 
     1470       -16.28    23.27     14.37     -79.95    -19.07    -110.35   -24.25    153.56 
     1480       -16.26    22.48     14.32     -81.42    -18.98    -111.78   -24.06    152.15 
     1490       -16.28    21.53     14.27     -82.86    -18.96    -112.94   -24.01    150.41 
     1500       -16.35    21.03     14.23     -84.35    -18.92    -114.16   -23.73    149.25 
     1510       -16.33    20.16     14.18     -85.83    -18.88    -115.28   -23.51    147.42 
     1520       -16.4     19.13     14.13     -87.34    -18.83    -116.41   -23.34    144.98 
     1530       -16.45    18.14     14.09     -88.8     -18.78    -117.78   -23.13    144.43 
     1540       -16.53    16.68     14.04     -90.3     -18.72    -118.91   -22.98    142.01 
     1550       -16.56    15.6      14        -91.75    -18.69    -120.09   -22.84    140.54 
     1560       -16.56    14.44     13.95     -93.26    -18.66    -121.36   -22.63    138.43 
     1570       -16.55    13.25     13.91     -94.72    -18.58    -122.42   -22.61    136.27 
     1580       -16.55    12.05     13.86     -96.2     -18.56    -123.73   -22.48    133.94 
     1590       -16.57    10.95     13.82     -97.7     -18.51    -124.97   -22.31    132.54 
     1600       -16.53    10.19     13.77     -99.15    -18.45    -126.17   -22.25    130.93 
     1610       -16.58    9.6       13.73     -100.59   -18.42    -127.32   -22.17    129.38 
     1620       -16.63    8.83      13.69     -102.06   -18.38    -128.55   -21.9     128.31 
     1630       -16.67    8.04      13.64     -103.5    -18.34    -129.76   -21.73    127.04 
     1640       -16.75    7.03      13.6      -104.99   -18.29    -131      -21.55    125.02 
     1650       -16.83    6.13      13.56     -106.46   -18.24    -132.32   -21.43    122.85 
     1660       -16.84    5.06      13.52     -107.93   -18.22    -133.43   -21.25    121.26 
     1670       -16.9     3.79      13.47     -109.38   -18.18    -134.8    -21.1     119.55 
     1680       -16.97    2.44      13.42     -110.84   -18.09    -135.83   -20.98    117.18 
     1690       -16.96    1.44      13.39     -112.33   -18.09    -137.21   -20.76    115.59 
     1700       -16.96    0.15      13.34     -113.81   -18.05    -138.2    -20.7     113.43 
     1710       -17.04    -0.95     13.31     -115.25   -18       -139.54   -20.55    112.35 
     1720       -17       -1.58     13.26     -116.71   -17.95    -140.78   -20.5     110.75 
     1730       -17.04    -2.42     13.22     -118.17   -17.92    -141.94   -20.36    109.82 
     1740       -17.14    -3.03     13.17     -119.59   -17.88    -143.11   -20.2     108.49 
     1750       -17.13    -4.09     13.14     -121.07   -17.83    -144.5    -20.04    107.29 
     1760       -17.19    -4.74     13.09     -122.53   -17.78    -145.8    -19.91    104.98 
     1770       -17.28    -6.2      13.05     -123.98   -17.78    -146.97   -19.82    102.98 
     1780       -17.34    -6.87     13.01     -125.41   -17.75    -148.03   -19.7     101.69 
     1790       -17.42    -7.99     12.97     -126.88   -17.69    -149.34   -19.49    99.83  
     1800       -17.46    -9.8      12.93     -128.33   -17.65    -150.52   -19.37    97.97  
     1810       -17.51    -10.34    12.89     -129.78   -17.59    -151.85   -19.33    96.46  
     1820       -17.59    -12       12.85     -131.21   -17.58    -153.1    -19.22    94.61  
     1830       -17.55    -12.82    12.81     -132.69   -17.52    -154.29   -19.09    93.32  
     1840       -17.65    -13.78    12.77     -134.12   -17.5     -155.67   -19.05    91.45  
     1850       -17.67    -14.76    12.73     -135.58   -17.47    -156.73   -18.91    90.45  
     1860       -17.71    -15.8     12.69     -137.05   -17.42    -157.94   -18.78    88.78  
     1870       -17.78    -16.63    12.65     -138.43   -17.4     -159.21   -18.68    87.27  
     1880       -17.92    -17.51    12.62     -139.88   -17.35    -160.32   -18.59    85.64  
     1890       -17.97    -18.28    12.58     -141.34   -17.31    -161.69   -18.44    83.99  
     1900       -18.01    -19.81    12.54     -142.78   -17.28    -162.73   -18.37    81.94  
     1910       -18.09    -21.27    12.5      -144.21   -17.23    -164.18   -18.28    80.13  
     1920       -18.12    -22.69    12.46     -145.65   -17.2     -165.41   -18.15    78.54  
     1930       -18.24    -24.19    12.43     -147.07   -17.18    -166.67   -18.02    76.92  
     1940       -18.19    -24.27    12.39     -148.54   -17.12    -167.75   -17.98    75.19  
     1950       -18.22    -25.35    12.36     -149.98   -17.08    -168.87   -17.88    74.08  
     1960       -18.24    -26.2     12.32     -151.41   -17.06    -170.19   -17.82    72.92  
     1970       -18.32    -27.35    12.28     -152.8    -17.03    -171.5    -17.76    71.57  
     1980       -18.35    -28.32    12.25     -154.28   -16.98    -172.67   -17.64    70.08  
     1990       -18.43    -29.16    12.21     -155.68   -16.96    -173.98   -17.58    68.5   
     2000       -18.52    -30.01    12.18     -157.13   -16.91    -175.19   -17.46    67.31  
     2010       -18.63    -31.5     12.14     -158.55   -16.87    -176.38   -17.4     65.36  
     2020       -18.67    -33.11    12.1      -160.06   -16.84    -177.73   -17.28    63.58  
     2030       -18.74    -34.48    12.07     -161.49   -16.8     -179      -17.2     62.02  
     2040       -18.79    -35.75    12.03     -162.9    -16.77    179.78    -17.12    60.18  
     2050       -18.83    -37.1     11.99     -164.34   -16.75    178.53    -17.05    58.6   
     2060       -18.88    -38.88    11.95     -165.74   -16.71    177.31    -16.95    56.93  
     2070       -18.88    -39.5     11.92     -167.19   -16.68    175.98    -16.88    55.84  
